! 2-Port simulation of an amplifier
! Port 1: input
! Port 2: output
# hz S ma R 50
9e+09 0.876341277 146.339384 3.35929228 -67.2250621 0.0312573865 -132.020891 0.799800508 126.138177
9.04119142e+09 0.8730716 145.554644 3.42980646 -68.5187852 0.0320761091 -133.206413 0.795580912 124.888332
9.08257136e+09 0.869581417 144.738613 3.50311235 -69.8475559 0.0329287431 -134.426577 0.791185473 123.587346
9.12414069e+09 0.865851373 143.889294 3.57933898 -71.2133474 0.0338169762 -135.683356 0.786601958 122.23171
9.16590027e+09 0.861860026 143.004538 3.65861787 -72.6182469 0.0347425503 -136.978836 0.781817379 120.817626
9.20785098e+09 0.857583628 142.08203 3.7410822 -74.0644646 0.0357072543 -138.315227 0.776817959 119.340973
9.2499937e+09 0.852995862 141.119276 3.82686576 -75.5543417 0.036712915 -139.694869 0.77158909 117.797278
9.29232929e+09 0.848067571 140.113586 3.9161016 -77.0903598 0.0377613849 -141.120243 0.766115311 116.181683
9.33485864e+09 0.842766456 139.062062 4.00892023 -78.6751484 0.0388545247 -142.593977 0.7603803 114.488904
9.37758265e+09 0.837056747 137.961579 4.10544741 -80.311493 0.0399941816 -144.118857 0.754366893 112.713189
9.42050219e+09 0.830898859 136.808769 4.20580131 -82.0023415 0.0411821613 -145.697829 0.748057126 110.848278
9.46361817e+09 0.82424903 135.600007 4.31008909 -83.7508088 0.0424201922 -147.334008 0.741432336 108.887352
9.50693149e+09 0.81705894 134.331384 4.41840256 -85.5601808 0.0437098808 -149.030678 0.7344733 106.822981
9.55044304e+09 0.809275337 132.998698 4.53081305 -87.4339138 0.0450526566 -150.791296 0.727160467 104.647071
9.59415373e+09 0.800839674 131.597429 4.6473651 -89.3756314 0.0464497046 -152.619485 0.719474272 102.35081
9.63806448e+09 0.791687778 130.122724 4.76806898 -91.3891162 0.0479018835 -154.519026 0.711395584 99.9246086
9.68217621e+09 0.781749579 128.569378 4.89289181 -93.4782951 0.0494096272 -156.493845 0.702906306 97.3580459
9.72648982e+09 0.770948945 126.931813 5.02174723 -95.6472166 0.0509728291 -158.54799 0.693990169 94.6398174
9.77100626e+09 0.759203651 125.204067 5.1544834 -97.9000185 0.0525907052 -160.685598 0.684633771 91.7576925
9.81572643e+09 0.746425572 123.379768 5.29086943 -100.240883 0.0542616382 -162.910852 0.6748279 88.698485
9.86065128e+09 0.732521144 121.452123 5.43058027 -102.67398 0.0559829999 -165.227919 0.6645692 85.448047
9.90578175e+09 0.717392217 119.413888 5.57318029 -105.203386 0.0577509549 -167.640877 0.65386222 81.9912972
9.95111877e+09 0.700937376 117.257337 5.71810597 -107.832994 0.0595602505 -170.153618 0.642721894 78.3122995
9.99666328e+09 0.683053879 114.97422 5.86464848 -110.566396 0.0614039976 -172.769731 0.63117646 74.394414
1.00424163e+10 0.663640302 112.555681 6.01193725 -113.406739 0.0632734567 -175.492365 0.619270783 70.220549
1.00883786e+10 0.642600049 109.992143 6.15892586 -116.356565 0.0651578422 -178.324061 0.607069995 65.773549
1.01345514e+10 0.619845793 107.273109 6.3043824 -119.417626 0.0670441683 178.733431 0.594663251 61.0367648
1.01809354e+10 0.595304932 104.386847 6.44688645 -122.590681 0.0689171618 175.679351 0.582167261 55.9948537
1.02275318e+10 0.568926055 101.319894 6.58483533 -125.875281 0.0707592728 172.514149 0.569729107 50.6348611
1.02743414e+10 0.540686344 98.0562629 6.71646236 -129.269559 0.0725508152 169.239693 0.557527629 44.9476205
1.03213652e+10 0.510599753 94.5762066 6.83986933 -132.770033 0.0742702679 165.859466 0.54577254 38.9294775
1.03686043e+10 0.478725765 90.8542973 6.95307481 -136.37144 0.0758947579 162.37873 0.534700297 32.5842789
1.04160596e+10 0.445178561 86.8564218 7.05407826 -140.066631 0.0774007337 158.804636 0.524565886 25.9254704
1.0463732e+10 0.410136636 82.535072 7.14093824 -143.846532 0.0787648146 155.146258 0.515630031 18.9780157
1.05116227e+10 0.373853488 77.8218782 7.21186047 -147.700211 0.0799647769 151.414528 0.508142109 11.7797273
1.05597325e+10 0.336671203 72.6156011 7.26528932 -151.615038 0.0809806096 147.622077 0.502320091 4.38152686
1.06080626e+10 0.299041134 66.7625395 7.29999456 -155.576959 0.0817955487 143.78296 0.498330011 -3.15377659
1.06566138e+10 0.261560462 60.0243553 7.31514439 -159.570871 0.0823969903 139.912279 0.496268309 -10.7543638
1.07053873e+10 0.225042014 52.0263845 7.31035643 -163.581065 0.0827771808 136.025745 0.496150507 -18.3437159
1.07543839e+10 0.190648802 42.1835701 7.28572057 -167.591725 0.0829336079 132.139174 0.497908688 -25.8457258
1.08036049e+10 0.160134527 29.6403151 7.24179092 -171.587425 0.0828690482 128.267992 0.501398468 -33.1897263
1.08530511e+10 0.136157826 13.4293648 7.17954783 -175.553599 0.0825912708 124.426765 0.506414046 -40.3145782
1.09027236e+10 0.122207933 -6.61290691 7.10033495 -179.476945 0.0821124404 120.628796 0.51270833 -47.1712595
1.09526234e+10 0.120988043 -28.3082456 7.00577869 176.654268 0.0814482956 116.885818 0.520014518 -53.7238168
1.10027516e+10 0.131844652 -47.9361046 6.89769892 172.849998 0.0806171971 113.207787 0.528065923 -59.9489074
1.10531093e+10 0.15116786 -63.5277695 6.77801954 169.118329 0.0796391429 109.602788 0.536611885 -65.8343674
1.11036974e+10 0.175203723 -75.3735663 6.64868613 165.465474 0.0785348346 106.077036 0.545428817 -71.3772762
1.11545171e+10 0.201391992 -84.4615572 6.51159585 161.895865 0.0773248593 102.634961 0.554326472 -76.5819025
1.12055694e+10 0.228226122 -91.6400394 6.36854237 158.412292 0.0760290235 99.2793544 0.563150172 -81.4577879
1.12568553e+10 0.254851247 -97.4900172 6.22117649 155.016095 0.0746658559 96.0115555 0.571779988 -86.0181052
1.13083759e+10 0.280785385 -102.389511 6.07098162 151.707368 0.0732522725 92.8316606 0.580127918 -90.2783322
1.13601324e+10 0.305761722 -106.585541 5.91926214 148.485179 0.0718033873 89.7387372 0.588133932 -94.2552318
1.14121257e+10 0.329641739 -110.243413 5.76714194 145.347773 0.0703324438 86.7310302 0.595761568 -97.9660969
1.1464357e+10 0.352365969 -113.477128 5.61557088 142.292764 0.068850839 83.8061535 0.602993548 -101.428213
1.15168273e+10 0.373924803 -116.367806 5.46533632 139.317304 0.0673682142 80.9612606 0.609827699 -104.658487
1.15695378e+10 0.394340344 -118.97494 5.31707809 136.418234 0.0658925903 78.1931914 0.616273351 -107.67321
1.16224895e+10 0.413654684 -121.343419 5.17130492 133.592203 0.0644305266 75.4985965 0.622348247 -110.487907
1.16756836e+10 0.431922066 -123.508004 5.02841125 130.835775 0.0629872904 72.8740387 0.628075994 -113.117256
1.17291212e+10 0.449203553 -125.496256 4.88869352 128.145504 0.0615670262 70.3160734 0.633483979 -115.57506
1.17828033e+10 0.465563341 -127.330494 4.75236546 125.518002 0.060172917 67.8213123 0.638601734 -117.874242
1.18367311e+10 0.481066216 -129.029123 4.61957187 122.949984 0.0588073334 65.3864706 0.643459648 -120.026869
1.18909058e+10 0.495775803 -130.607576 4.49040091 120.438303 0.0574719687 63.0084011 0.648087994 -122.044188
1.19453283e+10 0.509753392 -132.078969 4.36489488 117.979973 0.0561679574 60.684118 0.652516202 -123.936661
1.2e+10 0.523057166 -133.454588 4.2430594 115.572183 0.05489598 58.4108118 0.656772325 -125.71402
