! 2-Port measurement of a 10 dB attenuator, SMA(m)-SMA(f)
# Hz S  dB   R 50
10000000 -70.410912 -7.6302137 -10.008897 -0.36816138 -10.00737 -0.36066997 -54.198921 0.46286634
16392000 -65.764687 -19.148331 -10.013602 -0.58611864 -10.009904 -0.59675992 -54.064163 1.7573055
22784000 -62.175533 0.74047667 -10.017956 -0.75496829 -10.019427 -0.77238584 -53.692184 3.2004244
29176000 -62.578655 -4.5742016 -10.01706 -1.0041322 -10.018005 -1.0157739 -53.478344 2.5438859
35568000 -64.45034 -2.4837115 -10.014289 -1.2566659 -10.016519 -1.257113 -52.961376 3.3622916
41960000 -63.452869 -3.5475214 -10.01485 -1.4824607 -10.017404 -1.4858668 -52.898865 3.8232861
48352000 -62.84837 -1.5923887 -10.014172 -1.7212695 -10.017685 -1.7306516 -53.484409 4.5160356
54744000 -62.884281 -2.7214518 -10.015955 -1.9630719 -10.016428 -1.9707247 -53.617878 6.5716877
61136000 -62.108768 -1.0776759 -10.015179 -2.2001338 -10.01685 -2.196414 -53.991421 6.5745754
67528000 -61.71526 -2.2006884 -10.015305 -2.4293265 -10.016899 -2.4316981 -53.726257 5.8606257
73920000 -61.189327 -4.6692061 -10.015495 -2.6629846 -10.017109 -2.6609631 -53.623466 4.5257058
80312000 -60.960194 -2.0175152 -10.015067 -2.8936126 -10.016851 -2.8933003 -53.332062 5.0650077
86704000 -61.223446 1.6353823 -10.015199 -3.1217413 -10.017427 -3.1264038 -53.074291 6.3624187
93096000 -60.81078 2.5760186 -10.015119 -3.3643973 -10.01773 -3.3654804 -52.994488 7.830153
99488000 -60.755199 1.7388998 -10.01465 -3.5999374 -10.017844 -3.6034782 -53.050156 6.939364
105880000 -60.128059 1.2946775 -10.014888 -3.8364613 -10.018042 -3.8401263 -53.148277 7.7231641
112272000 -59.914761 1.6063529 -10.015078 -4.0683551 -10.017235 -4.0713449 -53.119659 7.4559565
118664000 -60.04427 3.4329426 -10.014722 -4.2935009 -10.018071 -4.300602 -53.06221 7.8499551
125056000 -59.765148 3.3892906 -10.014284 -4.5259242 -10.018525 -4.5326014 -53.061325 8.410449
131448000 -59.667988 4.3269596 -10.014647 -4.7561483 -10.018273 -4.7575741 -52.974213 8.6754465
137840000 -59.558559 6.0532141 -10.014985 -4.9800296 -10.019413 -4.9851041 -52.96347 8.9901934
144232000 -59.46426 6.0791221 -10.015327 -5.2055287 -10.019754 -5.2137933 -52.85553 9.9694433
150624000 -59.497185 7.8198237 -10.015512 -5.4293642 -10.019776 -5.4404197 -52.863548 9.6712542
157016000 -59.227283 10.100061 -10.015923 -5.6595001 -10.020149 -5.6658316 -52.817898 9.5879059
163408000 -59.081547 10.756042 -10.015563 -5.8882971 -10.020774 -5.8953261 -52.856174 9.2180033
169800000 -58.876987 10.689953 -10.015701 -6.1183796 -10.020768 -6.1223836 -52.802067 9.0250225
176192000 -58.86832 10.16014 -10.017672 -6.3485999 -10.019896 -6.3474441 -52.604359 8.3038816
182584000 -58.761292 11.19322 -10.017248 -6.5728951 -10.020865 -6.5802631 -52.615753 7.7470293
188976000 -58.648041 11.656081 -10.017333 -6.8082337 -10.021454 -6.8110547 -52.52898 6.6541615
195368000 -58.509613 10.628399 -10.017102 -7.0355959 -10.021786 -7.0440259 -52.480099 6.4727831
201760000 -58.172127 12.205813 -10.017358 -7.2668424 -10.02167 -7.2694583 -52.451988 5.5258651
208152000 -58.21484 13.434216 -10.017971 -7.4941406 -10.022051 -7.5025215 -52.399929 4.7380075
214544000 -58.032181 13.182635 -10.01765 -7.7252798 -10.022624 -7.7323847 -52.244007 3.9623353
220936000 -58.031357 12.577886 -10.018459 -7.9535122 -10.02221 -7.9591999 -52.185921 3.5316873
227328000 -58.13179 12.714254 -10.018006 -8.1842613 -10.022484 -8.1864567 -52.137966 2.5451746
233720000 -58.005745 13.090481 -10.017895 -8.4102545 -10.02313 -8.4171667 -51.982727 2.1442068
240112000 -57.557762 13.056632 -10.017838 -8.6363077 -10.023267 -8.6408052 -51.809193 1.1405396
246504000 -57.566086 12.493756 -10.018195 -8.8658562 -10.023221 -8.8736992 -51.699123 1.1730118
252896000 -58.002064 12.109738 -10.021056 -9.0973444 -10.02246 -9.096652 -51.509789 -1.0265795
259288000 -57.633366 13.521502 -10.021668 -9.3260288 -10.022617 -9.3253927 -51.45628 -0.70229727
265680000 -57.164734 13.491053 -10.020456 -9.5476513 -10.02262 -9.5536461 -51.246407 -1.3331174
272072000 -57.331028 11.856329 -10.021195 -9.7656021 -10.02329 -9.7714615 -51.216434 -0.86035997
278464000 -57.255196 13.13359 -10.020757 -9.9915457 -10.023579 -10.001148 -50.98494 -2.1265287
284856000 -57.220379 12.682844 -10.019251 -10.22034 -10.023997 -10.229806 -50.912647 -2.2534499
291248000 -57.043945 14.960744 -10.021228 -10.452995 -10.023646 -10.459878 -50.812355 -2.3590307
297640000 -56.674435 15.017269 -10.021622 -10.682123 -10.023546 -10.67935 -50.690533 -3.0158539
304032000 -56.671192 15.560983 -10.021699 -10.908997 -10.024369 -10.907827 -50.502796 -2.7642608
310424000 -56.879623 13.697492 -10.022377 -11.133644 -10.023524 -11.14015 -50.548683 -2.2531354
316816000 -56.480228 15.646924 -10.02066 -11.358203 -10.025675 -11.359448 -50.452629 -1.9851711
323208000 -56.484863 15.847441 -10.021998 -11.597918 -10.024436 -11.584179 -50.376163 -2.5219121
329600000 -56.222095 15.237023 -10.021997 -11.817004 -10.02446 -11.821302 -50.25074 -0.8843776
335992000 -56.546844 15.221456 -10.02288 -12.043018 -10.02587 -12.047355 -50.111504 -1.5746611
342384000 -56.478928 16.179518 -10.022548 -12.276691 -10.025558 -12.275393 -50.06086 -1.037095
348776000 -56.256626 17.798346 -10.022241 -12.502586 -10.025624 -12.504353 -50.021183 -0.54393929
355168000 -56.174641 17.547621 -10.02313 -12.72837 -10.025307 -12.741261 -49.886738 1.0648295
361560000 -56.217686 16.328022 -10.02113 -12.958642 -10.025982 -12.959187 -49.923199 1.2508267
367952000 -55.990685 16.477234 -10.022933 -13.189866 -10.025564 -13.195133 -49.877392 1.4030126
374344000 -56.046688 16.339499 -10.022337 -13.417075 -10.026034 -13.416485 -49.769283 1.8112371
380736000 -55.973148 15.843228 -10.024312 -13.640458 -10.026712 -13.646511 -49.768806 3.1909101
387128000 -55.876873 15.493389 -10.023769 -13.872699 -10.027175 -13.872743 -49.858753 2.935761
393520000 -55.883568 13.886571 -10.023235 -14.100029 -10.027334 -14.103521 -49.950851 3.7450736
399912000 -55.665504 13.119555 -10.023612 -14.32517 -10.027693 -14.32994 -49.891308 3.5692122
406304000 -55.643799 12.751051 -10.024495 -14.551076 -10.027056 -14.55745 -49.908825 4.1367002
412696000 -55.519058 11.288329 -10.023629 -14.782548 -10.027739 -14.786762 -50.02787 4.2052355
419088000 -55.692596 12.156203 -10.024609 -15.011275 -10.028053 -15.013474 -50.065399 4.7476449
425480000 -55.48558 10.76951 -10.025106 -15.236342 -10.029737 -15.240452 -50.119255 4.9279084
431872000 -55.187931 10.279844 -10.023643 -15.473112 -10.02907 -15.469631 -50.294544 4.1674757
438264000 -55.289383 8.7949314 -10.024761 -15.700599 -10.029221 -15.701318 -50.340725 4.7011251
444656000 -54.915096 9.3256474 -10.025158 -15.91881 -10.02991 -15.932963 -50.438354 3.7372634
451048000 -54.956509 7.600935 -10.025559 -16.155329 -10.029572 -16.151983 -50.506653 4.3173838
457440000 -54.724689 8.138422 -10.026232 -16.377039 -10.029277 -16.384174 -50.626125 3.3306155
463832000 -54.516296 7.3719335 -10.026268 -16.607164 -10.030153 -16.612522 -50.625618 4.0715022
470224000 -54.354362 7.0338278 -10.026258 -16.828348 -10.030882 -16.838686 -50.558445 3.746428
476616000 -54.266846 6.9312539 -10.027023 -17.06078 -10.030464 -17.057634 -50.576447 3.1560552
483008000 -54.234821 6.5348434 -10.025635 -17.286327 -10.03099 -17.297297 -50.587223 2.8245785
489400000 -53.906376 7.2791266 -10.025523 -17.511698 -10.032194 -17.52693 -50.514828 1.915666
495792000 -54.082596 6.361886 -10.026728 -17.744862 -10.030979 -17.744192 -50.496037 0.96665192
502184000 -53.844276 7.7589474 -10.028685 -17.969618 -10.031264 -17.978264 -50.444664 0.95874161
508576000 -54.013653 6.8410273 -10.027702 -18.207745 -10.031721 -18.198732 -50.445446 -0.25629508
514968000 -53.866001 7.0916619 -10.028864 -18.431196 -10.030545 -18.42721 -50.419472 -0.43686983
521360000 -54.054577 7.1063919 -10.028152 -18.658024 -10.031506 -18.658022 -50.230137 -1.7827492
527752000 -53.90659 7.0585837 -10.027782 -18.885992 -10.032924 -18.884455 -50.097046 -2.6521986
534144000 -54.12973 7.3916163 -10.028752 -19.114408 -10.031895 -19.11342 -50.146793 -3.3476131
540536000 -54.022472 7.3169351 -10.029681 -19.340338 -10.032593 -19.339417 -50.064663 -2.5538497
546928000 -54.229782 7.5584207 -10.028018 -19.565828 -10.032859 -19.571575 -49.955528 -3.6247687
553320000 -54.532127 7.5032191 -10.028781 -19.799957 -10.032697 -19.801498 -49.923222 -3.8570044
559712000 -54.424011 5.6246743 -10.029202 -20.02527 -10.033285 -20.021435 -49.89407 -4.7163057
566104000 -54.568428 6.2493415 -10.02875 -20.251705 -10.033142 -20.25511 -49.767197 -3.8539381
572496000 -54.858936 4.8908305 -10.029759 -20.476583 -10.032969 -20.483503 -49.64632 -4.72434
578888000 -54.898457 4.4100919 -10.029475 -20.703781 -10.032908 -20.706017 -49.590454 -4.7714853
585280000 -54.804897 3.0759952 -10.029919 -20.929655 -10.033331 -20.928747 -49.509987 -4.7137294
591672000 -54.903374 2.2644441 -10.029484 -21.157207 -10.033274 -21.159855 -49.449841 -4.6951337
598064000 -54.920532 0.39254597 -10.030253 -21.390141 -10.033955 -21.387932 -49.344891 -4.7300096
604456000 -54.926437 -0.2745482 -10.030231 -21.613203 -10.034515 -21.614094 -49.343754 -5.3710308
610848000 -54.62236 -1.7703016 -10.030841 -21.842808 -10.034018 -21.846924 -49.341824 -4.6792169
617240000 -54.645157 -3.0479138 -10.031231 -22.069048 -10.035125 -22.073038 -49.275318 -5.2858448
623632000 -54.434101 -3.8225398 -10.031817 -22.297668 -10.035123 -22.303431 -49.294754 -4.5462356
630024000 -54.4384 -4.1144671 -10.030318 -22.523731 -10.034054 -22.532036 -49.223087 -4.7903018
636416000 -54.31488 -5.1398878 -10.031475 -22.748016 -10.035254 -22.756586 -49.31123 -5.2622781
642808000 -54.189068 -6.4326892 -10.031496 -22.985636 -10.034883 -22.974783 -49.121937 -5.7346325
649200000 -54.013092 -4.8203793 -10.031144 -23.205853 -10.036384 -23.209827 -49.131516 -5.403306
655592000 -54.021286 -6.2244616 -10.031775 -23.435493 -10.035434 -23.44183 -49.107143 -6.2958503
661984000 -54.009747 -6.8935518 -10.031734 -23.659904 -10.035836 -23.666965 -49.110451 -6.3991923
668376000 -54.003975 -6.7472191 -10.031272 -23.893133 -10.036629 -23.894875 -49.020336 -6.5320139
674768000 -53.848198 -6.5541296 -10.033083 -24.118979 -10.035289 -24.121851 -49.005959 -6.4453778
681160000 -53.839451 -5.5852585 -10.033042 -24.345594 -10.035995 -24.350925 -48.952057 -6.5562873
687552000 -53.855175 -5.9026241 -10.0338 -24.571772 -10.036316 -24.57288 -48.844246 -7.0560226
693944000 -53.879971 -6.1795731 -10.032399 -24.801579 -10.036472 -24.807337 -48.749397 -6.9689546
700336000 -53.803238 -5.6043959 -10.033465 -25.025742 -10.037571 -25.027323 -48.644051 -6.8144941
706728000 -53.981133 -5.38797 -10.033525 -25.253014 -10.037764 -25.259768 -48.544403 -7.3513823
713120000 -54.170826 -4.7982616 -10.033701 -25.489197 -10.038463 -25.487635 -48.487881 -7.2271171
719512000 -54.142982 -5.5317602 -10.0336 -25.717234 -10.038998 -25.713669 -48.421173 -7.0438561
725904000 -54.210316 -5.5769796 -10.033963 -25.936403 -10.038044 -25.93874 -48.382469 -7.2887402
732296000 -54.319199 -5.2173905 -10.034417 -26.171148 -10.03808 -26.168259 -48.255997 -6.8035502
738688000 -54.39864 -6.6867681 -10.034744 -26.394312 -10.038239 -26.395098 -48.234627 -7.1457205
745080000 -54.439896 -8.0906477 -10.034062 -26.625401 -10.038934 -26.623873 -48.143055 -7.0293074
751472000 -54.646969 -9.1193256 -10.035045 -26.850647 -10.038785 -26.849058 -48.158611 -7.207417
757864000 -54.43478 -8.9176445 -10.035142 -27.07505 -10.039217 -27.083231 -48.16251 -6.6136694
764256000 -54.506809 -10.960949 -10.035088 -27.304289 -10.039639 -27.306643 -48.121403 -6.75425
770648000 -54.487522 -11.263767 -10.035717 -27.533121 -10.040302 -27.535513 -48.119381 -6.9564672
777040000 -54.332397 -12.910836 -10.035213 -27.759966 -10.041039 -27.760494 -48.169334 -6.4407101
783432000 -54.220249 -15.367286 -10.036305 -27.99238 -10.039533 -27.98591 -48.147141 -6.5814333
789824000 -54.161297 -14.783984 -10.035921 -28.217836 -10.040861 -28.216127 -48.18837 -6.4448457
796216000 -53.98539 -16.787066 -10.037063 -28.43598 -10.040602 -28.441179 -48.266808 -6.5059905
802608000 -53.826382 -15.858122 -10.037214 -28.66641 -10.04086 -28.66604 -48.268497 -6.6661854
809000000 -53.57539 -17.034119 -10.037629 -28.891222 -10.040298 -28.896051 -48.268764 -6.9527435
815392000 -53.653366 -17.381981 -10.036088 -29.127256 -10.04108 -29.119726 -48.379566 -7.3330722
821784000 -53.344578 -17.59115 -10.0364 -29.351137 -10.042389 -29.354296 -48.301712 -7.4722595
828176000 -53.253101 -16.615921 -10.037254 -29.57868 -10.042092 -29.579184 -48.233944 -7.9712229
834568000 -53.141842 -15.556282 -10.037081 -29.798149 -10.042697 -29.810328 -48.271511 -8.1187305
840960000 -53.073116 -16.203926 -10.038161 -30.027895 -10.042277 -30.033489 -48.278595 -8.7890205
847352000 -52.963905 -14.987023 -10.03848 -30.260727 -10.042699 -30.260536 -48.140221 -9.0395308
853744000 -53.121143 -14.51606 -10.038693 -30.488234 -10.042055 -30.488743 -48.269718 -9.6440029
860136000 -53.214577 -14.802198 -10.038885 -30.709938 -10.041734 -30.713497 -48.167046 -9.6042309
866528000 -53.282154 -13.762464 -10.037978 -30.943615 -10.043078 -30.943531 -48.102772 -9.7153387
872920000 -53.460949 -12.802018 -10.037707 -31.17021 -10.042621 -31.168585 -48.072826 -9.8234959
879312000 -53.645298 -14.067007 -10.038871 -31.396286 -10.043342 -31.395555 -47.960106 -10.07254
885704000 -53.750916 -12.372094 -10.039367 -31.625097 -10.043185 -31.6287 -47.946911 -9.8303308
892096000 -53.894554 -12.741447 -10.038309 -31.848749 -10.044388 -31.85091 -47.805729 -9.9440832
898488000 -54.120155 -13.57804 -10.039653 -32.07914 -10.043571 -32.082314 -47.769176 -9.53158
904880000 -54.223175 -12.651652 -10.039227 -32.304058 -10.042769 -32.307194 -47.711269 -9.2400503
911272000 -54.294376 -13.414204 -10.039054 -32.531761 -10.043819 -32.53577 -47.621685 -9.2691755
917664000 -54.47205 -14.991566 -10.039407 -32.766113 -10.043691 -32.757492 -47.544003 -8.9011536
924056000 -54.406372 -16.002457 -10.039743 -32.990147 -10.044168 -32.988552 -47.493599 -8.5243397
930448000 -54.425232 -15.832249 -10.039687 -33.213539 -10.045111 -33.213081 -47.462311 -8.3681765
936840000 -54.525742 -17.501682 -10.040129 -33.440006 -10.044081 -33.4408 -47.422924 -7.9839277
943232000 -54.460312 -17.712442 -10.040066 -33.663673 -10.0446 -33.666882 -47.389603 -8.1024275
949624000 -54.542984 -19.89262 -10.040908 -33.887623 -10.044615 -33.893173 -47.461792 -7.8411641
956016000 -54.512341 -21.264269 -10.040009 -34.122704 -10.044776 -34.120441 -47.412479 -7.8011603
962408000 -54.341366 -21.442308 -10.040344 -34.343853 -10.04566 -34.350025 -47.408482 -7.4420762
968800000 -54.415882 -22.705004 -10.04082 -34.579441 -10.044741 -34.572273 -47.449654 -7.7509432
975192000 -54.458996 -22.482965 -10.039336 -34.802349 -10.045441 -34.80682 -47.433811 -7.9297576
981584000 -54.325726 -22.11935 -10.04028 -35.033562 -10.045283 -35.029484 -47.389942 -7.2006721
987976000 -54.419353 -23.42765 -10.04143 -35.254333 -10.045718 -35.265129 -47.437763 -7.7788515
994368000 -54.400738 -23.65954 -10.041176 -35.483631 -10.046327 -35.490707 -47.395576 -7.8335013
1000760000 -54.513737 -23.739237 -10.040732 -35.710167 -10.046382 -35.720428 -47.429359 -8.1012449
1007152000 -54.439274 -24.09453 -10.041101 -35.935555 -10.047012 -35.938087 -47.402443 -8.8619089
1013544000 -54.371582 -23.972679 -10.04158 -36.169693 -10.047441 -36.170784 -47.382683 -8.7808475
1019936000 -54.496952 -24.084373 -10.04143 -36.392456 -10.047668 -36.39809 -47.326168 -8.7680798
1026328000 -54.620506 -24.656624 -10.041902 -36.61459 -10.047217 -36.619671 -47.308212 -9.2822332
1032720000 -54.582439 -22.301418 -10.042083 -36.848347 -10.047924 -36.852158 -47.264881 -9.5384712
1039112000 -54.451267 -22.854202 -10.042489 -37.076054 -10.047101 -37.071503 -47.178871 -9.3741245
1045504000 -54.673248 -23.355145 -10.042778 -37.300591 -10.047846 -37.3032 -47.153015 -9.7901268
1051896000 -54.84655 -24.041145 -10.043145 -37.528294 -10.04787 -37.53334 -47.073311 -9.9819384
1058288000 -54.831478 -23.645037 -10.043617 -37.757889 -10.047849 -37.755215 -46.987724 -9.9853249
1064680000 -55.017738 -25.397202 -10.04278 -37.98061 -10.048067 -37.980068 -46.903858 -10.29565
1071072000 -55.112442 -25.580595 -10.043759 -38.214672 -10.048112 -38.208134 -46.869049 -10.426579
1077464000 -55.110348 -27.880405 -10.043432 -38.440296 -10.048646 -38.442184 -46.820595 -10.040988
1083856000 -55.442429 -29.023291 -10.042809 -38.671921 -10.048267 -38.662006 -46.762863 -10.181133
1090248000 -55.338451 -29.968699 -10.04424 -38.892681 -10.049231 -38.89336 -46.705063 -9.7650118
1096640000 -55.320572 -30.77132 -10.043708 -39.117496 -10.048944 -39.121574 -46.682781 -9.9224911
1103032000 -55.170799 -33.542908 -10.04376 -39.346306 -10.049854 -39.347355 -46.681038 -10.233518
1109424000 -55.116814 -33.020596 -10.043925 -39.574387 -10.048657 -39.570984 -46.693226 -9.8315582
1115816000 -55.053604 -36.029034 -10.045242 -39.797882 -10.049051 -39.802322 -46.657692 -9.9510231
1122208000 -54.876942 -37.251495 -10.04492 -40.030376 -10.048878 -40.030136 -46.686031 -9.9450827
1128600000 -54.745468 -36.513176 -10.044216 -40.253384 -10.049251 -40.261242 -46.655418 -9.5370216
1134992000 -54.673172 -36.580334 -10.044713 -40.478077 -10.049601 -40.484035 -46.619514 -9.8532877
1141384000 -54.505829 -37.016014 -10.045822 -40.706081 -10.049913 -40.711658 -46.621437 -9.8509169
1147776000 -54.381592 -36.689129 -10.043823 -40.935081 -10.050112 -40.933075 -46.619335 -9.7696962
1154168000 -54.388527 -36.679951 -10.045761 -41.162849 -10.050155 -41.168552 -46.579586 -10.019053
1160560000 -54.102501 -35.123032 -10.044765 -41.386955 -10.050817 -41.392014 -46.60075 -10.308674
1166952000 -54.115402 -35.511616 -10.04606 -41.620621 -10.050353 -41.619225 -46.612186 -10.48478
1173344000 -54.083595 -33.823158 -10.044915 -41.845284 -10.050346 -41.846642 -46.535343 -10.829493
1179736000 -54.257202 -34.301422 -10.044747 -42.074177 -10.050826 -42.072536 -46.546371 -10.810914
1186128000 -54.185825 -34.035641 -10.046529 -42.298298 -10.051131 -42.299809 -46.456512 -10.812265
1192520000 -54.162537 -32.507805 -10.046894 -42.523979 -10.05028 -42.529388 -46.333561 -11.412182
1198912000 -54.238876 -32.827465 -10.047022 -42.751343 -10.05213 -42.756989 -46.272816 -11.263751
1205304000 -54.254948 -31.885008 -10.046657 -42.980549 -10.050858 -42.984592 -46.233482 -11.588123
1211696000 -54.506096 -32.305634 -10.047093 -43.201801 -10.052356 -43.20615 -46.160801 -11.595377
1218088000 -54.421768 -31.603569 -10.047238 -43.432049 -10.051562 -43.437943 -46.131458 -11.632888
1224480000 -54.589561 -31.513367 -10.048098 -43.657642 -10.052108 -43.660843 -46.042671 -11.453318
1230872000 -54.763985 -32.035912 -10.047524 -43.887268 -10.05225 -43.888165 -45.935383 -11.356167
1237264000 -54.83749 -33.06855 -10.048433 -44.115101 -10.052409 -44.118111 -45.9389 -11.402921
1243656000 -54.999886 -33.512955 -10.046602 -44.336765 -10.052963 -44.343124 -45.868057 -11.336267
1250048000 -55.167774 -34.621159 -10.048196 -44.56789 -10.052608 -44.570168 -45.830933 -10.911248
1256440000 -55.439827 -35.864689 -10.048044 -44.79398 -10.052485 -44.798672 -45.778088 -11.183084
1262832000 -55.398888 -38.097984 -10.04774 -45.01923 -10.052547 -45.028091 -45.739799 -11.142609
1269224000 -55.746605 -37.676842 -10.04785 -45.249775 -10.052943 -45.24754 -45.660587 -11.008411
1275616000 -55.625427 -40.364502 -10.048161 -45.475449 -10.052161 -45.476765 -45.688347 -10.931985
1282008000 -55.666176 -41.859055 -10.047602 -45.703506 -10.052489 -45.703766 -45.682568 -10.901037
1288400000 -55.756981 -42.860142 -10.047069 -45.920528 -10.052793 -45.932407 -45.681507 -10.773081
1294792000 -55.675354 -43.052296 -10.048618 -46.153206 -10.053371 -46.158619 -45.645741 -10.830608
1301184000 -55.580414 -43.176083 -10.049336 -46.380573 -10.053294 -46.387638 -45.544922 -10.637836
