! 2-Port Measurement of a badly matched MSL
# Hz S  RI   R 50
300000 2.501387e-003 -9.246927e-004 9.986126e-001 -2.527807e-003 9.977687e-001 -2.130612e-003 3.781180e-003 -5.517395e-004
4049812.5 2.955912e-003 -3.675358e-003 9.971567e-001 -1.470870e-002 9.965301e-001 -1.468677e-002 2.679016e-003 -3.754415e-003
7799625 2.824755e-003 -6.601973e-003 9.965098e-001 -2.757037e-002 9.959146e-001 -2.737151e-002 2.736630e-003 -6.493676e-003
11549437.5 2.853261e-003 -8.540635e-003 9.961937e-001 -4.098581e-002 9.959735e-001 -4.035674e-002 9.608098e-004 -8.658580e-003
15299250 2.945017e-003 -1.101104e-002 9.955576e-001 -5.398099e-002 9.953685e-001 -5.359153e-002 4.896099e-005 -1.064343e-002
19049062.5 2.853221e-003 -1.374648e-002 9.943835e-001 -6.677476e-002 9.944316e-001 -6.642200e-002 -6.367321e-004 -1.214887e-002
22798875 3.156804e-003 -1.627226e-002 9.934385e-001 -7.977226e-002 9.935041e-001 -7.934295e-002 -1.692897e-003 -1.327883e-002
26548687.5 3.879932e-003 -1.868758e-002 9.922639e-001 -9.225484e-002 9.918819e-001 -9.202672e-002 -1.664896e-003 -1.459651e-002
30298500 3.832870e-003 -2.105095e-002 9.908448e-001 -1.055720e-001 9.908906e-001 -1.049740e-001 -1.798124e-003 -1.599385e-002
34048312.5 3.962914e-003 -2.331834e-002 9.891773e-001 -1.184523e-001 9.891437e-001 -1.181421e-001 -1.392219e-003 -1.722471e-002
37798125 3.901553e-003 -2.502999e-002 9.874799e-001 -1.312491e-001 9.875659e-001 -1.308277e-001 -1.096230e-003 -1.944195e-002
41547937.5 4.029877e-003 -2.679463e-002 9.853372e-001 -1.439859e-001 9.856583e-001 -1.435255e-001 -4.143812e-004 -2.151636e-002
45297750 4.185046e-003 -2.903313e-002 9.832783e-001 -1.568237e-001 9.830476e-001 -1.563512e-001 5.160803e-004 -2.350775e-002
49047562.5 3.653837e-003 -3.033027e-002 9.814707e-001 -1.698297e-001 9.806660e-001 -1.687524e-001 1.184499e-003 -2.631786e-002
52797375 3.260243e-003 -3.210823e-002 9.783662e-001 -1.826597e-001 9.786453e-001 -1.820112e-001 8.969955e-004 -2.882122e-002
56547187.5 2.162787e-003 -3.362995e-002 9.761753e-001 -1.952622e-001 9.759202e-001 -1.946717e-001 1.387843e-003 -3.245343e-002
60297000 5.727015e-004 -3.473205e-002 9.735579e-001 -2.080614e-001 9.725954e-001 -2.071624e-001 2.165840e-003 -3.570690e-002
64046812.5 1.060443e-004 -3.616527e-002 9.696922e-001 -2.208487e-001 9.703566e-001 -2.200656e-001 1.082532e-003 -3.888918e-002
67796625 -1.118739e-003 -3.757935e-002 9.669050e-001 -2.335414e-001 9.665863e-001 -2.325778e-001 6.904429e-004 -4.293687e-002
71546437.5 -2.434779e-003 -3.923356e-002 9.635662e-001 -2.461806e-001 9.633553e-001 -2.452875e-001 -1.106743e-003 -4.657907e-002
75296250 -5.285375e-003 -4.041404e-002 9.599997e-001 -2.585224e-001 9.603784e-001 -2.581186e-001 -3.210027e-003 -5.055608e-002
79046062.5 -6.739946e-003 -4.216241e-002 9.558458e-001 -2.709062e-001 9.564392e-001 -2.706055e-001 -4.294187e-003 -5.359757e-002
82795875 -7.742904e-003 -4.435886e-002 9.523479e-001 -2.839648e-001 9.521599e-001 -2.833214e-001 -8.061905e-003 -5.622332e-002
86545687.5 -9.932440e-003 -4.516033e-002 9.478298e-001 -2.962183e-001 9.477811e-001 -2.956817e-001 -1.063986e-002 -5.914264e-002
90295500 -1.195865e-002 -4.724832e-002 9.436832e-001 -3.087346e-001 9.434956e-001 -3.080546e-001 -1.475956e-002 -6.056473e-002
94045312.5 -1.381175e-002 -4.925526e-002 9.385409e-001 -3.213324e-001 9.391517e-001 -3.209555e-001 -1.700675e-002 -6.161419e-002
97795125 -1.552862e-002 -5.077007e-002 9.336478e-001 -3.340350e-001 9.333917e-001 -3.329395e-001 -2.010267e-002 -6.193826e-002
101544937.5 -1.762174e-002 -5.381845e-002 9.280759e-001 -3.463776e-001 9.275553e-001 -3.454113e-001 -2.116191e-002 -6.140307e-002
105294750 -1.891582e-002 -5.723878e-002 9.208736e-001 -3.570301e-001 9.212622e-001 -3.565795e-001 -2.065455e-002 -6.104456e-002
109044562.5 -2.124775e-002 -6.052146e-002 9.146962e-001 -3.667491e-001 9.150809e-001 -3.668418e-001 -2.090132e-002 -6.314357e-002
112794375 -2.340896e-002 -6.386160e-002 9.091201e-001 -3.774186e-001 9.100208e-001 -3.775935e-001 -2.098071e-002 -6.601361e-002
116544187.5 -2.552313e-002 -6.616756e-002 9.041421e-001 -3.876667e-001 9.047333e-001 -3.886425e-001 -2.358402e-002 -6.866135e-002
120294000 -2.742358e-002 -6.907286e-002 8.994527e-001 -3.978403e-001 8.991573e-001 -3.995934e-001 -2.647001e-002 -7.077394e-002
124043812.5 -2.917160e-002 -7.237943e-002 8.952379e-001 -4.088661e-001 8.920488e-001 -4.095657e-001 -2.850076e-002 -7.234433e-002
127793625 -3.182698e-002 -7.440916e-002 8.900123e-001 -4.193114e-001 8.880375e-001 -4.184579e-001 -3.150663e-002 -7.294378e-002
131543437.5 -3.364737e-002 -7.706138e-002 8.850298e-001 -4.307467e-001 8.839095e-001 -4.288034e-001 -3.309982e-002 -7.311144e-002
135293250 -3.526806e-002 -7.964088e-002 8.799484e-001 -4.417292e-001 8.790930e-001 -4.400733e-001 -3.476982e-002 -7.304036e-002
139043062.5 -3.664408e-002 -8.167640e-002 8.746960e-001 -4.529067e-001 8.738665e-001 -4.513724e-001 -3.636119e-002 -7.319982e-002
142792875 -3.794209e-002 -8.283715e-002 8.687492e-001 -4.643408e-001 8.676981e-001 -4.617530e-001 -3.798125e-002 -7.370155e-002
146542687.5 -3.855452e-002 -8.441739e-002 8.626814e-001 -4.758050e-001 8.618260e-001 -4.730043e-001 -3.867381e-002 -7.436997e-002
150292500 -3.957807e-002 -8.585805e-002 8.553746e-001 -4.868581e-001 8.567107e-001 -4.837661e-001 -3.846592e-002 -7.493670e-002
154042312.5 -4.072528e-002 -8.697744e-002 8.486714e-001 -4.971313e-001 8.510831e-001 -4.955114e-001 -3.911166e-002 -7.557859e-002
157792125 -4.177578e-002 -8.847415e-002 8.415743e-001 -5.065790e-001 8.443452e-001 -5.075310e-001 -3.948530e-002 -7.760154e-002
161541937.5 -4.221881e-002 -8.834607e-002 8.362469e-001 -5.177275e-001 8.372210e-001 -5.178509e-001 -3.993050e-002 -7.908319e-002
165291750 -4.389435e-002 -8.837084e-002 8.298084e-001 -5.287936e-001 8.296636e-001 -5.287662e-001 -4.045365e-002 -8.187645e-002
169041562.5 -4.544283e-002 -8.873994e-002 8.223930e-001 -5.393499e-001 8.224233e-001 -5.393996e-001 -4.187433e-002 -8.358711e-002
172791375 -4.730335e-002 -8.880174e-002 8.149289e-001 -5.502210e-001 8.144131e-001 -5.492598e-001 -4.286632e-002 -8.600001e-002
176541187.5 -4.807036e-002 -8.810750e-002 8.072100e-001 -5.598660e-001 8.069870e-001 -5.600971e-001 -4.496386e-002 -8.858952e-002
180291000 -5.004148e-002 -8.677131e-002 7.992420e-001 -5.704541e-001 7.997583e-001 -5.697276e-001 -4.685869e-002 -9.229331e-002
184040812.5 -5.184150e-002 -8.680865e-002 7.916625e-001 -5.803396e-001 7.917829e-001 -5.796690e-001 -4.989806e-002 -9.399998e-002
187790625 -5.355150e-002 -8.642974e-002 7.837227e-001 -5.903400e-001 7.841566e-001 -5.901638e-001 -5.243142e-002 -9.585474e-002
191540437.5 -5.596998e-002 -8.594767e-002 7.758263e-001 -6.004085e-001 7.756068e-001 -5.991997e-001 -5.610500e-002 -9.728906e-002
195290250 -5.854142e-002 -8.493856e-002 7.674106e-001 -6.092494e-001 7.674265e-001 -6.090259e-001 -6.013555e-002 -9.842188e-002
199040062.5 -6.120387e-002 -8.397158e-002 7.588260e-001 -6.187680e-001 7.596066e-001 -6.192563e-001 -6.402928e-002 -9.892400e-002
202789875 -6.314308e-002 -8.364411e-002 7.505038e-001 -6.284829e-001 7.503687e-001 -6.283454e-001 -6.777519e-002 -9.911383e-002
206539687.5 -6.670343e-002 -8.306074e-002 7.417594e-001 -6.376836e-001 7.415439e-001 -6.375108e-001 -7.145155e-002 -9.758716e-002
210289500 -6.929179e-002 -8.284660e-002 7.328662e-001 -6.472654e-001 7.321337e-001 -6.462616e-001 -7.455784e-002 -9.592383e-002
214039312.5 -7.199983e-002 -8.262624e-002 7.234376e-001 -6.554883e-001 7.231359e-001 -6.552818e-001 -7.692826e-002 -9.431016e-002
217789125 -7.534819e-002 -8.302713e-002 7.139570e-001 -6.636858e-001 7.135326e-001 -6.635596e-001 -7.796056e-002 -9.233399e-002
221538937.5 -7.822331e-002 -8.334105e-002 7.045699e-001 -6.715514e-001 7.038774e-001 -6.704689e-001 -7.843398e-002 -9.150648e-002
225288750 -8.187458e-002 -8.435967e-002 6.950575e-001 -6.781937e-001 6.952379e-001 -6.779245e-001 -7.933812e-002 -9.218251e-002
229038562.5 -8.523538e-002 -8.547643e-002 6.867359e-001 -6.851740e-001 6.867709e-001 -6.848732e-001 -8.077774e-002 -9.205525e-002
232788375 -8.776260e-002 -8.546104e-002 6.787021e-001 -6.930544e-001 6.782553e-001 -6.922650e-001 -8.279338e-002 -9.326767e-002
236538187.5 -9.132020e-002 -8.631971e-002 6.706724e-001 -7.003219e-001 6.701074e-001 -6.993888e-001 -8.544282e-002 -9.351408e-002
240288000 -9.382876e-002 -8.681864e-002 6.620615e-001 -7.079042e-001 6.618443e-001 -7.069694e-001 -8.833718e-002 -9.216197e-002
244037812.5 -9.609614e-002 -8.720482e-002 6.545042e-001 -7.159550e-001 6.531960e-001 -7.143847e-001 -9.074805e-002 -9.151572e-002
247787625 -9.883302e-002 -8.822677e-002 6.458933e-001 -7.240512e-001 6.453715e-001 -7.226701e-001 -9.228995e-002 -8.872169e-002
251537437.5 -1.012723e-001 -8.869425e-002 6.366163e-001 -7.319766e-001 6.372105e-001 -7.304100e-001 -9.381882e-002 -8.817130e-002
255287250 -1.026145e-001 -8.948434e-002 6.276460e-001 -7.404158e-001 6.284883e-001 -7.386838e-001 -9.500586e-002 -8.660894e-002
259037062.5 -1.042362e-001 -8.916256e-002 6.184158e-001 -7.488919e-001 6.197414e-001 -7.468490e-001 -9.518462e-002 -8.532329e-002
262786875 -1.053130e-001 -8.953048e-002 6.089836e-001 -7.560262e-001 6.103343e-001 -7.550987e-001 -9.585344e-002 -8.394837e-002
266536687.5 -1.070321e-001 -9.006682e-002 5.987539e-001 -7.637415e-001 6.000999e-001 -7.626852e-001 -9.590717e-002 -8.363508e-002
270286500 -1.080491e-001 -8.908764e-002 5.890809e-001 -7.710872e-001 5.906963e-001 -7.703598e-001 -9.606157e-002 -8.400877e-002
274036312.5 -1.084760e-001 -8.905590e-002 5.796494e-001 -7.783017e-001 5.808418e-001 -7.776406e-001 -9.579618e-002 -8.429419e-002
277786125 -1.087296e-001 -8.811956e-002 5.696270e-001 -7.856324e-001 5.706320e-001 -7.854767e-001 -9.626726e-002 -8.429722e-002
281535937.5 -1.090802e-001 -8.744255e-002 5.590174e-001 -7.923614e-001 5.603617e-001 -7.924085e-001 -9.660014e-002 -8.511250e-002
285285750 -1.092012e-001 -8.576081e-002 5.492319e-001 -7.996024e-001 5.495522e-001 -7.994928e-001 -9.754174e-002 -8.671796e-002
289035562.5 -1.100672e-001 -8.418836e-002 5.386575e-001 -8.062044e-001 5.396277e-001 -8.067290e-001 -9.882326e-002 -8.722021e-002
292785375 -1.104823e-001 -8.198037e-002 5.280836e-001 -8.132078e-001 5.288233e-001 -8.129595e-001 -1.007887e-001 -8.853292e-002
296535187.5 -1.109261e-001 -8.087491e-002 5.168453e-001 -8.188896e-001 5.179516e-001 -8.196018e-001 -1.030817e-001 -8.960199e-002
300285000 -1.114898e-001 -7.888483e-002 5.065650e-001 -8.253470e-001 5.065857e-001 -8.255764e-001 -1.058708e-001 -8.962216e-002
304034812.5 -1.116024e-001 -7.617181e-002 4.958386e-001 -8.315740e-001 4.960712e-001 -8.314003e-001 -1.093019e-001 -9.019794e-002
307784625 -1.124231e-001 -7.363486e-002 4.845939e-001 -8.374173e-001 4.849282e-001 -8.368844e-001 -1.125816e-001 -8.926062e-002
311534437.5 -1.133562e-001 -7.116150e-002 4.737955e-001 -8.433020e-001 4.738781e-001 -8.429961e-001 -1.155257e-001 -8.788019e-002
315284250 -1.135366e-001 -6.841239e-002 4.621914e-001 -8.484065e-001 4.625568e-001 -8.487667e-001 -1.182775e-001 -8.641975e-002
319034062.5 -1.148790e-001 -6.555127e-002 4.516002e-001 -8.536515e-001 4.514406e-001 -8.536294e-001 -1.211894e-001 -8.386673e-002
322783875 -1.157502e-001 -6.290394e-002 4.398325e-001 -8.585171e-001 4.400584e-001 -8.587305e-001 -1.233201e-001 -8.133081e-002
326533687.5 -1.173404e-001 -5.958018e-002 4.287352e-001 -8.633675e-001 4.286731e-001 -8.638767e-001 -1.248667e-001 -7.850841e-002
330283500 -1.192473e-001 -5.829232e-002 4.174111e-001 -8.674669e-001 4.170370e-001 -8.681218e-001 -1.247820e-001 -7.562371e-002
334033312.5 -1.206624e-001 -5.615101e-002 4.056504e-001 -8.716257e-001 4.055396e-001 -8.719544e-001 -1.248521e-001 -7.264239e-002
337783125 -1.227719e-001 -5.470964e-002 3.947792e-001 -8.752545e-001 3.942150e-001 -8.756890e-001 -1.242286e-001 -7.045151e-002
341532937.5 -1.245120e-001 -5.297997e-002 3.844063e-001 -8.795513e-001 3.832895e-001 -8.787050e-001 -1.234359e-001 -6.954472e-002
345282750 -1.265334e-001 -5.118079e-002 3.734875e-001 -8.831989e-001 3.734321e-001 -8.821821e-001 -1.241720e-001 -6.891675e-002
349032562.5 -1.283351e-001 -4.929090e-002 3.632719e-001 -8.861132e-001 3.626860e-001 -8.860937e-001 -1.247185e-001 -6.845437e-002
352782375 -1.302568e-001 -4.761770e-002 3.529629e-001 -8.900743e-001 3.529359e-001 -8.897326e-001 -1.267325e-001 -6.688632e-002
356532187.5 -1.323159e-001 -4.640849e-002 3.429273e-001 -8.946348e-001 3.424075e-001 -8.939627e-001 -1.272981e-001 -6.557731e-002
360282000 -1.342133e-001 -4.568527e-002 3.326851e-001 -8.983840e-001 3.320510e-001 -8.976069e-001 -1.278733e-001 -6.336838e-002
364031812.5 -1.357304e-001 -4.509819e-002 3.219746e-001 -9.025371e-001 3.215068e-001 -9.018549e-001 -1.284801e-001 -6.076049e-002
367781625 -1.365961e-001 -4.376704e-002 3.111059e-001 -9.070141e-001 3.112647e-001 -9.062898e-001 -1.286063e-001 -5.828777e-002
371531437.5 -1.380695e-001 -4.311370e-002 3.002933e-001 -9.112452e-001 2.994427e-001 -9.107571e-001 -1.274939e-001 -5.528289e-002
375281250 -1.381118e-001 -4.260838e-002 2.888319e-001 -9.151784e-001 2.892196e-001 -9.144188e-001 -1.266615e-001 -5.396310e-002
379031062.5 -1.385218e-001 -4.241646e-002 2.774180e-001 -9.196798e-001 2.770072e-001 -9.184029e-001 -1.248957e-001 -5.235460e-002
382780875 -1.386967e-001 -4.094450e-002 2.654441e-001 -9.232370e-001 2.663358e-001 -9.219909e-001 -1.234361e-001 -5.067239e-002
386530687.5 -1.378461e-001 -4.057122e-002 2.542538e-001 -9.259757e-001 2.542961e-001 -9.255607e-001 -1.228943e-001 -5.053951e-002
390280500 -1.379277e-001 -3.978403e-002 2.419416e-001 -9.303554e-001 2.421990e-001 -9.293751e-001 -1.207677e-001 -5.001584e-002
394030312.5 -1.370454e-001 -3.903018e-002 2.298870e-001 -9.331512e-001 2.301206e-001 -9.322893e-001 -1.196731e-001 -4.994880e-002
397780125 -1.353040e-001 -3.703532e-002 2.178611e-001 -9.365456e-001 2.179052e-001 -9.355692e-001 -1.198229e-001 -5.059110e-002
401529937.5 -1.339787e-001 -3.694040e-002 2.057371e-001 -9.388073e-001 2.055557e-001 -9.377221e-001 -1.190479e-001 -5.079069e-002
405279750 -1.320994e-001 -3.445326e-002 1.935938e-001 -9.408463e-001 1.933949e-001 -9.400663e-001 -1.195390e-001 -5.209923e-002
409029562.5 -1.301860e-001 -3.397651e-002 1.808912e-001 -9.430763e-001 1.812287e-001 -9.424992e-001 -1.195004e-001 -5.144461e-002
412779375 -1.284773e-001 -3.147290e-002 1.686717e-001 -9.459789e-001 1.690527e-001 -9.450272e-001 -1.205045e-001 -5.207408e-002
416529187.5 -1.261482e-001 -2.902748e-002 1.564414e-001 -9.472832e-001 1.562061e-001 -9.463988e-001 -1.218656e-001 -5.169121e-002
420279000 -1.240619e-001 -2.764953e-002 1.436234e-001 -9.487804e-001 1.439421e-001 -9.479613e-001 -1.230511e-001 -5.149164e-002
424028812.5 -1.222068e-001 -2.490310e-002 1.309554e-001 -9.497311e-001 1.319986e-001 -9.489205e-001 -1.246518e-001 -4.979018e-002
427778625 -1.193517e-001 -2.260982e-002 1.190760e-001 -9.510466e-001 1.198679e-001 -9.505330e-001 -1.261304e-001 -4.798009e-002
431528437.5 -1.183512e-001 -2.006656e-002 1.068518e-001 -9.519902e-001 1.069513e-001 -9.516683e-001 -1.267253e-001 -4.536116e-002
435278250 -1.159074e-001 -1.694610e-002 9.421571e-002 -9.529675e-001 9.470490e-002 -9.517447e-001 -1.277550e-001 -4.304383e-002
439028062.5 -1.143842e-001 -1.471672e-002 8.218698e-002 -9.532037e-001 8.227843e-002 -9.526178e-001 -1.276562e-001 -3.995612e-002
442777875 -1.124114e-001 -1.235865e-002 6.933312e-002 -9.533573e-001 7.024124e-002 -9.528800e-001 -1.265511e-001 -3.605855e-002
446527687.5 -1.112004e-001 -9.088712e-003 5.763096e-002 -9.536384e-001 5.789837e-002 -9.529734e-001 -1.250779e-001 -3.402856e-002
450277500 -1.103682e-001 -6.509353e-003 4.511642e-002 -9.536437e-001 4.554933e-002 -9.523632e-001 -1.220063e-001 -3.184222e-002
454027312.5 -1.092392e-001 -4.011822e-003 3.316636e-002 -9.529117e-001 3.341864e-002 -9.520535e-001 -1.201445e-001 -3.026033e-002
457777125 -1.097992e-001 -2.051568e-003 2.185130e-002 -9.516123e-001 2.208293e-002 -9.516090e-001 -1.177201e-001 -2.880047e-002
461526937.5 -1.090258e-001 8.012886e-004 1.076866e-002 -9.511834e-001 1.093026e-002 -9.502211e-001 -1.157550e-001 -2.893354e-002
465276750 -1.085696e-001 3.139287e-003 -6.198656e-005 -9.503370e-001 -2.770305e-004 -9.499584e-001 -1.150234e-001 -2.804530e-002
469026562.5 -1.081082e-001 4.533035e-003 -1.174152e-002 -9.509434e-001 -1.107199e-002 -9.499443e-001 -1.137836e-001 -2.739361e-002
472776375 -1.082428e-001 6.695438e-003 -2.265511e-002 -9.503469e-001 -2.231570e-002 -9.502013e-001 -1.132509e-001 -2.593401e-002
476526187.5 -1.079236e-001 7.581851e-003 -3.440077e-002 -9.497812e-001 -3.338040e-002 -9.494442e-001 -1.121218e-001 -2.409466e-002
480276000 -1.075643e-001 9.118184e-003 -4.528152e-002 -9.502391e-001 -4.482614e-002 -9.494354e-001 -1.097643e-001 -2.254789e-002
484025812.5 -1.069471e-001 9.678930e-003 -5.663186e-002 -9.501041e-001 -5.683393e-002 -9.498630e-001 -1.075653e-001 -2.024724e-002
487775625 -1.060964e-001 1.115211e-002 -6.892873e-002 -9.496231e-001 -6.845243e-002 -9.498873e-001 -1.052780e-001 -1.887527e-002
491525437.5 -1.048835e-001 1.098847e-002 -8.115409e-002 -9.492884e-001 -8.079866e-002 -9.496764e-001 -1.021022e-001 -1.813143e-002
495275250 -1.041547e-001 1.081636e-002 -9.316289e-002 -9.485683e-001 -9.241842e-002 -9.489445e-001 -9.853294e-002 -1.670020e-002
499025062.5 -1.019142e-001 1.102309e-002 -1.057983e-001 -9.482173e-001 -1.048403e-001 -9.474530e-001 -9.594333e-002 -1.791148e-002
502774875 -1.007048e-001 1.005411e-002 -1.181272e-001 -9.464675e-001 -1.176373e-001 -9.464014e-001 -9.217751e-002 -1.874647e-002
506524687.5 -9.827061e-002 1.023968e-002 -1.305054e-001 -9.456646e-001 -1.304059e-001 -9.453830e-001 -8.968293e-002 -1.984960e-002
510274500 -9.567908e-002 9.410442e-003 -1.431098e-001 -9.430342e-001 -1.428353e-001 -9.434929e-001 -8.760229e-002 -2.065889e-002
514024312.5 -9.274511e-002 9.471837e-003 -1.557747e-001 -9.415902e-001 -1.551292e-001 -9.413842e-001 -8.503617e-002 -2.270408e-002
517774125 -8.922122e-002 7.381652e-003 -1.679691e-001 -9.390554e-001 -1.679592e-001 -9.394490e-001 -8.377348e-002 -2.345455e-002
521523937.5 -8.592852e-002 7.429278e-003 -1.804288e-001 -9.368638e-001 -1.803178e-001 -9.370357e-001 -8.293676e-002 -2.560288e-002
525273750 -8.247158e-002 6.163517e-003 -1.926118e-001 -9.343796e-001 -1.929571e-001 -9.346451e-001 -8.170750e-002 -2.633833e-002
529023562.5 -7.809098e-002 6.235009e-003 -2.053723e-001 -9.314181e-001 -2.055228e-001 -9.315097e-001 -8.146604e-002 -2.825582e-002
532773375 -7.394870e-002 5.659519e-003 -2.180123e-001 -9.283704e-001 -2.178540e-001 -9.279023e-001 -8.063813e-002 -2.918621e-002
536523187.5 -6.961553e-002 5.820992e-003 -2.300911e-001 -9.249065e-001 -2.300572e-001 -9.248570e-001 -8.076590e-002 -2.955691e-002
540273000 -6.624921e-002 5.103317e-003 -2.421693e-001 -9.212692e-001 -2.422730e-001 -9.209425e-001 -8.061288e-002 -2.897209e-002
544022812.5 -6.109567e-002 4.632129e-003 -2.540406e-001 -9.175379e-001 -2.545188e-001 -9.173486e-001 -7.972784e-002 -2.817706e-002
547772625 -5.755597e-002 5.642437e-003 -2.661412e-001 -9.140537e-001 -2.666771e-001 -9.135609e-001 -7.952072e-002 -2.732012e-002
551522437.5 -5.287538e-002 5.915431e-003 -2.784114e-001 -9.096806e-001 -2.788027e-001 -9.094853e-001 -7.727794e-002 -2.575575e-002
555272250 -4.925963e-002 6.474386e-003 -2.903951e-001 -9.050358e-001 -2.904927e-001 -9.046770e-001 -7.595655e-002 -2.495150e-002
559022062.5 -4.495509e-002 6.791366e-003 -3.023083e-001 -9.007181e-001 -3.030241e-001 -9.001921e-001 -7.324041e-002 -2.336433e-002
562771875 -4.165719e-002 7.289136e-003 -3.144422e-001 -8.957293e-001 -3.140215e-001 -8.951296e-001 -6.992242e-002 -2.143054e-002
566521687.5 -3.791710e-002 7.760920e-003 -3.259408e-001 -8.904509e-001 -3.257639e-001 -8.900915e-001 -6.592540e-002 -2.174913e-002
570271500 -3.454784e-002 8.320141e-003 -3.370532e-001 -8.847932e-001 -3.368407e-001 -8.846101e-001 -6.200252e-002 -2.194147e-002
