! Simulation of a 4-port directional coupler
! P1 and P2 are the thru ports, P3 is coupled to P2, P4 is coupled to P1
# hz S ma R 50
1e+09 0.135400768 -32.1805244 0.913688333 -21.9152141 0.0504655466 -22.3806299 0.314044325 72.8080142
0.913688333 -21.9152141 0.13897577 -38.291354 0.314111974 69.3021766 0.0490185719 -24.6270525
0.0504655466 -22.3806299 0.314111974 69.3021766 0.2126719 -18.1793013 0.000660250688 -55.550224
0.314044325 72.8080142 0.0490185719 -24.6270525 0.000660250688 -55.550224 0.212273421 -17.0725343
1.03e+09 0.135547539 -33.1166052 0.913613132 -22.5716382 0.050631199 -22.9824 0.314002317 72.2913839
0.913613132 -22.5716382 0.139327657 -39.3893002 0.31406723 68.6801531 0.049145445 -25.2799251
0.050631199 -22.9824 0.31406723 68.6801531 0.212805788 -18.7217754 0.000676953584 -55.7260074
0.314002317 72.2913839 0.049145445 -25.2799251 0.000676953584 -55.7260074 0.212383586 -17.5819573
1.06e+09 0.135697429 -34.0501991 0.913535765 -23.2280118 0.050795986 -23.5861474 0.313959961 71.7748413
0.913535765 -23.2280118 0.13968733 -40.4831579 0.314021848 68.058214 0.0492718789 -25.9340293
0.050795986 -23.5861474 0.314021848 68.058214 0.212943448 -19.2639886 0.000693763274 -55.9334115
0.313959961 71.7748413 0.0492718789 -25.9340293 0.000693763274 -55.9334115 0.212496887 -18.0911325
1.09e+09 0.135850339 -34.9812511 0.913456251 -23.8843333 0.0509598867 -24.191842 0.313917265 71.2583872
0.913456251 -23.8843333 0.140054586 -41.5728639 0.313975838 67.4363608 0.0493978639 -26.5893504
0.0509598867 -24.191842 0.313975838 67.4363608 0.213084865 -19.8059336 0.00071067295 -56.1704819
0.313917265 71.2583872 0.0493978639 -26.5893504 0.00071067295 -56.1704819 0.212613314 -18.6000528
1.12e+09 0.13600617 -35.9097078 0.913374614 -24.5406009 0.05112288 -24.7994534 0.313874238 70.7420223
0.913374614 -24.5406009 0.140429219 -42.6583584 0.313929209 66.8145949 0.0495233903 -27.2458735
0.05112288 -24.7994534 0.313929209 66.8145949 0.21323002 -20.3476031 0.000727676263 -56.4354113
0.313874238 70.7420223 0.0495233903 -27.2458735 0.000727676263 -56.4354113 0.212732854 -19.1087114
1.15e+09 0.136164819 -36.8355169 0.913290875 -25.1968131 0.0512849457 -25.4089519 0.313830891 70.2257472
0.913290875 -25.1968131 0.140811023 -43.7395854 0.313881971 66.1929178 0.0496484487 -27.9035842
0.0512849457 -25.4089519 0.313881971 66.1929178 0.213378898 -20.8889898 0.000744767273 -56.7265271
0.313830891 70.2257472 0.0496484487 -27.9035842 0.000744767273 -56.7265271 0.212855498 -19.6171012
1.18e+09 0.136326183 -37.7586277 0.913205056 -25.8529683 0.0514460634 -26.0203081 0.313787233 69.7095624
0.913205056 -25.8529683 0.141199788 -44.8164923 0.313834133 65.5713309 0.0497730297 -28.5624679
0.0514460634 -26.0203081 0.313834133 65.5713309 0.213531479 -21.4300867 0.00076194041 -57.0422809
0.313787233 69.7095624 0.0497730297 -28.5624679 0.00076194041 -57.0422809 0.212981232 -20.1252153
1.21e+09 0.136490157 -38.6789907 0.91311718 -26.5090647 0.0516062133 -26.6334927 0.313743275 69.1934686
0.91311718 -26.5090647 0.141595302 -45.8890302 0.313785706 64.9498357 0.0498971241 -29.2225102
0.0516062133 -26.6334927 0.313785706 64.9498357 0.213687745 -21.9708866 0.000779190441 -57.3812376
0.313743275 69.1934686 0.0498971241 -29.2225102 0.000779190441 -57.3812376 0.213110045 -20.6330471
1.24e+09 0.136656635 -39.5965578 0.913027271 -27.165101 0.0517653758 -27.2484766 0.313699025 68.6774663
0.913027271 -27.165101 0.141997352 -46.9571536 0.313736698 64.3284335 0.0500207229 -29.883697
0.0517653758 -27.2484766 0.313736698 64.3284335 0.213847678 -22.5113825 0.000796512433 -57.7420665
0.313699025 68.6774663 0.0500207229 -29.883697 0.000796512433 -57.7420665 0.213241924 -21.1405896
1.27e+09 0.136825509 -40.5112822 0.912935353 -27.8210755 0.0519235319 -27.8652314 0.313654494 68.1615559
0.912935353 -27.8210755 0.142405725 -48.0208201 0.313687121 63.7071257 0.0501438171 -30.546014
0.0519235319 -27.8652314 0.313687121 63.7071257 0.214011259 -23.0515674 0.000813901729 -58.1235322
0.313654494 68.1615559 0.0501438171 -30.546014 0.000813901729 -58.1235322 0.213376857 -21.6478362
1.3e+09 0.136996672 -41.4231186 0.912841451 -28.4769867 0.0520806626 -28.4837287 0.313609692 67.645738
0.912841451 -28.4769867 0.142820204 -49.079991 0.313636985 63.0859136 0.050266398 -31.209447
0.0520806626 -28.4837287 0.313636985 63.0859136 0.214178468 -23.5914343 0.000831353917 -58.5244876
0.313609692 67.645738 0.050266398 -31.209447 0.000831353917 -58.5244876 0.213514831 -22.1547801
1.33e+09 0.137170014 -42.3320229 0.912745588 -29.1328332 0.0522367492 -29.1039404 0.313564629 67.1300131
0.912745588 -29.1328332 0.143240574 -50.1346306 0.3135863 62.4647985 0.0503884568 -31.8739823
0.0522367492 -29.1039404 0.3135863 62.4647985 0.214349286 -24.1309763 0.000848864813 -58.9438656
0.313564629 67.1300131 0.0503884568 -31.8739823 0.000848864813 -58.9438656 0.213655833 -22.6614148
1.36e+09 0.137345425 -43.2379523 0.912647792 -29.7886134 0.0523917736 -29.7258387 0.313519316 66.6143815
0.912647792 -29.7886134 0.143666616 -51.1847066 0.313535077 61.8437817 0.0505099851 -32.5396059
0.0523917736 -29.7258387 0.313535077 61.8437817 0.214523691 -24.6701868 0.000866430436 -59.3806735
0.313519316 66.6143815 0.0505099851 -32.5396059 0.000866430436 -59.3806735 0.213799848 -23.1677338
1.39e+09 0.137522794 -44.1408656 0.912548087 -30.4443259 0.0525457178 -30.3493962 0.313473761 66.0988436
0.912548087 -30.4443259 0.144098113 -52.2301897 0.313483327 61.2228643 0.0506309745 -33.2063041
0.0525457178 -30.3493962 0.313483327 61.2228643 0.214701663 -25.209059 0.000884046992 -59.8339867
0.313473761 66.0988436 0.0506309745 -33.2063041 0.000884046992 -59.8339867 0.213946865 -23.6737304
1.42e+09 0.137702009 -45.0407225 0.912446499 -31.0999693 0.0526985641 -30.9745857 0.313427977 65.5833999
0.912446499 -31.0999693 0.144534846 -53.2710536 0.31343106 60.6020477 0.0507514167 -33.8740632
0.0526985641 -30.9745857 0.31343106 60.6020477 0.214883182 -25.7475862 0.000901710855 -60.3029431
0.313427977 65.5833999 0.0507514167 -33.8740632 0.000901710855 -60.3029431 0.214096868 -24.1793984
1.45e+09 0.137882958 -45.9374843 0.912343057 -31.7555422 0.0528502951 -31.6013804 0.313381973 65.0680505
0.912343057 -31.7555422 0.144976596 -54.3072749 0.313378287 59.9813331 0.0508713036 -34.5428698
0.0528502951 -31.6013804 0.313378287 59.9813331 0.215068225 -26.2857618 0.000919418554 -60.7867381
0.313381973 65.0680505 0.0508713036 -34.5428698 0.000919418554 -60.7867381 0.214249843 -24.6847314
1.48e+09 0.138065527 -46.8311135 0.912237785 -32.4110432 0.0530008939 -32.2297536 0.313335759 64.5527959
0.912237785 -32.4110432 0.145423145 -55.3388333 0.31332502 59.3607214 0.0509906272 -35.2127103
0.0530008939 -32.2297536 0.31332502 59.3607214 0.21525677 -26.8235794 0.000937166756 -61.2846206
0.313335759 64.5527959 0.0509906272 -35.2127103 0.000937166756 -61.2846206 0.214405776 -25.189723
1.51e+09 0.138249604 -47.7215739 0.912130713 -33.066471 0.0531503437 -32.859679 0.313289347 64.0376362
0.912130713 -33.066471 0.145874272 -56.3657111 0.313271269 58.7402139 0.0511093795 -35.8835716
0.0531503437 -32.859679 0.313271269 58.7402139 0.215448796 -27.3610324 0.000954952262 -61.7958882
0.313289347 64.0376362 0.0511093795 -35.8835716 0.000954952262 -61.7958882 0.214564652 -25.694367
1.54e+09 0.138435074 -48.6088305 0.912021867 -33.7218244 0.0532986279 -33.4911307 0.313242745 63.5225718
0.912021867 -33.7218244 0.14632976 -57.3878934 0.313217047 58.1198117 0.0512275529 -36.5554405
0.0532986279 -33.4911307 0.313217047 58.1198117 0.21564428 -27.8981145 0.000972771985 -62.3198836
0.313242745 63.5225718 0.0512275529 -36.5554405 0.000972771985 -62.3198836 0.214726455 -26.1986573
1.57e+09 0.138621822 -49.4928496 0.911911276 -34.3771019 0.0534457306 -34.1240829 0.313195966 63.0076028
0.911911276 -34.3771019 0.14678939 -58.4053678 0.313162364 57.4995157 0.0513451398 -37.2283038
0.0534457306 -34.1240829 0.313162364 57.4995157 0.215843198 -28.4348195 0.000990622949 -62.8559915
0.313195966 63.0076028 0.0513451398 -37.2283038 0.000990622949 -62.8559915 0.214891172 -26.7025877
1.6e+09 0.138809736 -50.3735987 0.911798969 -35.0323024 0.0535916357 -34.7585101 0.313149019 62.4927293
0.911798969 -35.0323024 0.147252944 -59.4181245 0.313107232 56.879327 0.0514621327 -37.9021486
0.0535916357 -34.7585101 0.313107232 56.879327 0.216045528 -28.971141 0.00100850228 -63.4036349
0.313149019 62.4927293 0.0514621327 -37.9021486 0.00100850228 -63.4036349 0.215058786 -27.2061522
1.63e+09 0.138998699 -51.2510465 0.911684974 -35.6874247 0.0537363278 -35.3943872 0.313101916 61.9779515
0.911684974 -35.6874247 0.147720204 -60.4261563 0.313051663 56.2592466 0.0515785241 -38.5769621
0.0537363278 -35.3943872 0.313051663 56.2592466 0.216251244 -29.5070729 0.00102640718 -63.9622727
0.313101916 61.9779515 0.0515785241 -38.5769621 0.00102640718 -63.9622727 0.215229281 -27.7093448
1.66e+09 0.139188598 -52.1251629 0.911569321 -36.3424675 0.0538797915 -36.0316893 0.313054665 61.4632695
0.911569321 -36.3424675 0.148190953 -61.429458 0.312995668 55.6392755 0.0516943069 -39.2527315
0.0538797915 -36.0316893 0.312995668 55.6392755 0.216460324 -30.0426093 0.00104433495 -64.5313966
0.313054665 61.4632695 0.0516943069 -39.2527315 0.00104433495 -64.5313966 0.215402642 -28.2121597
1.69e+09 0.139379318 -52.9959189 0.91145204 -36.9974297 0.0540220118 -36.6703919 0.31300728 60.9486833
0.91145204 -36.9974297 0.148664976 -62.4280271 0.31293926 55.0194144 0.051809474 -39.9294443
0.0540220118 -36.6703919 0.31293926 55.0194144 0.216672743 -30.577744 0.00106228297 -65.110529
0.31300728 60.9486833 0.051809474 -39.9294443 0.00106228297 -65.110529 0.215578852 -28.7145911
1.72e+09 0.139570744 -53.8632868 0.911333159 -37.6523102 0.0541629741 -37.3104705 0.312959769 60.434193
0.911333159 -37.6523102 0.149142056 -63.4218628 0.31288245 54.3996644 0.0519240183 -40.6070878
0.0541629741 -37.3104705 0.31288245 54.3996644 0.216888476 -31.1124712 0.00108024867 -65.6992207
0.312959769 60.434193 0.0519240183 -40.6070878 0.00108024867 -65.6992207 0.215757895 -29.2166331
1.75e+09 0.139762762 -54.7272397 0.911212711 -38.3071079 0.0543026637 -37.9519012 0.312912143 59.9197986
0.911212711 -38.3071079 0.149621982 -64.4109669 0.312825251 53.7800263 0.052037933 -41.2856499
0.0543026637 -37.9519012 0.312825251 53.7800263 0.217107497 -31.6467851 0.00109822957 -66.2970486
0.312912143 59.9197986 0.052037933 -41.2856499 0.00109822957 -66.2970486 0.215939754 -29.7182802
1.78e+09 0.139955258 -55.5877521 0.911090724 -38.9618217 0.0544410667 -38.5946602 0.312864414 59.4055001
0.911090724 -38.9618217 0.150104538 -65.3953429 0.312767673 53.1605008 0.0521512114 -41.9651181
0.0544410667 -38.5946602 0.312767673 53.1605008 0.217329782 -32.1806798 0.00111622323 -66.9036144
0.312864414 59.4055001 0.0521512114 -41.9651181 0.00111622323 -66.9036144 0.216124412 -30.2195267
1.81e+09 0.140148118 -56.4447995 0.910967229 -39.6164506 0.0545781691 -39.238724 0.312816591 58.8912972
0.910967229 -39.6164506 0.150589515 -66.3749961 0.312709731 52.5410887 0.0522638467 -42.6454804
0.0545781691 -39.238724 0.312709731 52.5410887 0.217555303 -32.7141498 0.00113422728 -67.5185423
0.312816591 58.8912972 0.0522638467 -42.6454804 0.00113422728 -67.5185423 0.216311853 -30.720367
1.84e+09 0.140341228 -57.2983583 0.910842259 -40.2709936 0.0547139572 -39.8840693 0.312768686 58.37719
0.910842259 -40.2709936 0.151076701 -67.3499341 0.312651435 51.9217907 0.0523758326 -43.3267247
0.0547139572 -39.8840693 0.312651435 51.9217907 0.217784036 -33.2471895 0.00115223939 -68.1414777
0.312768686 58.37719 0.0523758326 -43.3267247 0.00115223939 -68.1414777 0.216502057 -31.2207959
1.87e+09 0.140534475 -58.1484061 0.910715843 -40.9254497 0.0548484177 -40.5306733 0.312720708 57.8631783
0.910715843 -40.9254497 0.151565889 -68.3201658 0.312592798 51.3026076 0.0524871627 -44.0088391
0.0548484177 -40.5306733 0.312592798 51.3026076 0.218015954 -33.7797932 0.00117025729 -68.7720857
0.312720708 57.8631783 0.0524871627 -44.0088391 0.00117025729 -68.7720857 0.216695009 -31.7208077
1.9e+09 0.140727748 -58.9949213 0.910588014 -41.5798181 0.0549815375 -41.1785132 0.312672669 57.349262
0.910588014 -41.5798181 0.152056871 -69.2857019 0.312533832 50.68354 0.0525978305 -44.6918117
0.0549815375 -41.1785132 0.312533832 50.68354 0.218251029 -34.3119557 0.00118827875 -69.4100497
0.312672669 57.349262 0.0525978305 -44.6918117 0.00118827875 -69.4100497 0.21689069 -32.2203974
1.93e+09 0.140920934 -59.8378834 0.910458803 -42.2340977 0.0551133039 -41.8275665 0.31262458 56.8354407
0.910458803 -42.2340977 0.152549442 -70.2465549 0.312474551 50.0645886 0.0527078301 -45.375631
0.0551133039 -41.8275665 0.312474551 50.0645886 0.218489234 -34.8436716 0.00120630158 -70.0550704
0.31262458 56.8354407 0.0527078301 -45.375631 0.00120630158 -70.0550704 0.217089082 -32.7195596
1.96e+09 0.141113922 -60.6772729 0.910328242 -42.8882878 0.0552437041 -42.4778112 0.31257645 56.3217143
0.910328242 -42.8882878 0.153043398 -71.2027386 0.312414965 49.4457538 0.0528171552 -46.0602853
0.0552437041 -42.4778112 0.312414965 49.4457538 0.218730542 -35.3749356 0.00122432362 -70.7068642
0.31257645 56.3217143 0.0528171552 -46.0602853 0.00122432362 -70.7068642 0.217290167 -33.2182892
1.99e+09 0.141306601 -61.513071 0.910196364 -43.5423875 0.0553727259 -43.1292252 0.31252829 55.8080824
0.910196364 -43.5423875 0.153538537 -72.1542682 0.312355089 48.8270363 0.0529258001 -46.7457633
0.0553727259 -43.1292252 0.312355089 48.8270363 0.218974926 -35.9057425 0.00124234277 -71.3651625
0.31252829 55.8080824 0.0529258001 -46.7457633 0.00124234277 -71.3651625 0.217493927 -33.7165812
2.02e+09 0.141498862 -62.3452599 0.9100632 -44.196396 0.0555003573 -43.781787 0.312480112 55.2945448
0.9100632 -44.196396 0.154034659 -73.1011603 0.312294934 48.2084365 0.0530337589 -47.4320534
0.0555003573 -43.781787 0.312294934 48.2084365 0.219222357 -36.4360873 0.00126035693 -72.029711
0.312480112 55.2945448 0.0530337589 -47.4320534 0.00126035693 -72.029711 0.217700342 -34.2144306
2.05e+09 0.141690597 -63.1738227 0.909928784 -44.8503126 0.0556265865 -44.4354751 0.312431924 54.7811011
0.909928784 -44.8503126 0.154531567 -74.0434329 0.312234513 47.589955 0.0531410259 -48.1191446
0.0556265865 -44.4354751 0.312234513 47.589955 0.219472806 -36.965965 0.00127836407 -72.7002679
0.312431924 54.7811011 0.0531410259 -48.1191446 0.00127836407 -72.7002679 0.217909394 -34.7118324
2.08e+09 0.141881696 -63.9987434 0.909793147 -45.5041365 0.0557514018 -45.0902684 0.312383738 54.2677509
0.909793147 -45.5041365 0.155029064 -74.9811051 0.312173839 46.9715921 0.0532475954 -48.8070258
0.0557514018 -45.0902684 0.312173839 46.9715921 0.219726245 -37.4953707 0.00129636215 -73.376604
0.312383738 54.2677509 0.0532475954 -48.8070258 0.00129636215 -73.376604 0.218121064 -35.2087819
2.11e+09 0.142072053 -64.8200065 0.909656323 -46.1578671 0.0558747921 -45.7461459 0.312335565 53.7544938
0.909656323 -46.1578671 0.155526956 -75.9141971 0.312112924 46.3533482 0.053353462 -49.4956859
0.0558747921 -45.7461459 0.312112924 46.3533482 0.219982645 -38.0242994 0.0013143492 -74.0585014
0.312335565 53.7544938 0.053353462 -49.4956859 0.0013143492 -74.0585014 0.218335333 -35.7052743
2.14e+09 0.142261563 -65.6375975 0.909518344 -46.8115037 0.0559967462 -46.403087 0.312287414 53.2413294
0.909518344 -46.8115037 0.156025051 -76.8427303 0.31205178 45.7352238 0.0534586203 -50.185114
0.0559967462 -46.403087 0.31205178 45.7352238 0.220241977 -38.5527466 0.00133232323 -74.7457531
0.312287414 53.2413294 0.0534586203 -50.185114 0.00133232323 -74.7457531 0.21855218 -36.201305
2.17e+09 0.14245012 -66.4515028 0.909379245 -47.4650457 0.0561172533 -47.0610712 0.312239295 52.7282571
0.909379245 -47.4650457 0.15652316 -77.766727 0.311990422 45.117219 0.0535630651 -50.8752995
0.0561172533 -47.0610712 0.311990422 45.117219 0.220504211 -39.0807075 0.00135028231 -75.4381619
0.312239295 52.7282571 0.0535630651 -50.8752995 0.00135028231 -75.4381619 0.218771588 -36.6968694
2.2e+09 0.142637621 -67.2617091 0.909239057 -48.1184924 0.0562363029 -47.7200785 0.31219122 52.2152764
0.909239057 -48.1184924 0.157021096 -78.6862104 0.311928861 44.4993343 0.053666791 -51.5662316
0.0562363029 -47.7200785 0.311928861 44.4993343 0.220769318 -39.6081776 0.00136822453 -76.1355403
0.31219122 52.2152764 0.053666791 -51.5662316 0.00136822453 -76.1355403 0.218993535 -37.191963
2.23e+09 0.142823963 -68.0682042 0.909097814 -48.7718434 0.0563538846 -48.3800887 0.312143198 51.7023868
0.909097814 -48.7718434 0.157518672 -79.6012046 0.31186711 43.8815698 0.0537697932 -52.2578998
0.0563538846 -48.3800887 0.31186711 43.8815698 0.221037267 -40.1351523 0.00138614799 -76.8377096
0.312143198 51.7023868 0.0537697932 -52.2578998 0.00138614799 -76.8377096 0.219218001 -37.6865814
2.26e+09 0.143009045 -68.8709763 0.90895555 -49.4250982 0.0564699883 -49.0410822 0.312095239 51.1895876
0.90895555 -49.4250982 0.158015708 -80.5117346 0.311805182 43.2639256 0.0538720665 -52.9502938
0.0564699883 -49.0410822 0.311805182 43.2639256 0.221308028 -40.6616273 0.00140405081 -77.5444994
0.312095239 51.1895876 0.0538720665 -52.9502938 0.00140405081 -77.5444994 0.219444967 -38.1807202
2.29e+09 0.143192767 -69.6700143 0.908812299 -50.0782562 0.0565846041 -49.7030396 0.312047354 50.6768783
0.908812299 -50.0782562 0.158512021 -81.417826 0.311743089 42.6464021 0.0539736062 -53.6434031
0.0565846041 -49.7030396 0.311743089 42.6464021 0.22158157 -41.1875983 0.00142193113 -78.2557473
0.312047354 50.6768783 0.0539736062 -53.6434031 0.00142193113 -78.2557473 0.219674413 -38.6743753
2.32e+09 0.14337503 -70.4653079 0.908668092 -50.731317 0.0566977224 -50.3659414 0.311999552 50.1642582
0.908668092 -50.731317 0.159007435 -82.3195053 0.311680845 42.0289993 0.0540744074 -54.3372177
0.0566977224 -50.3659414 0.311680845 42.0289993 0.221857862 -41.7130611 0.00143978713 -78.9712983
0.311999552 50.1642582 0.0540744074 -54.3372177 0.00143978713 -78.9712983 0.219906316 -39.1675424
2.35e+09 0.143555738 -71.2568472 0.908522965 -51.3842803 0.0568093338 -51.0297688 0.311951843 49.6517266
0.908522965 -51.3842803 0.159501772 -83.2167994 0.311618462 41.4117172 0.0541744655 -55.0317274
0.0568093338 -51.0297688 0.311618462 41.4117172 0.222136875 -42.2380115 0.00145761698 -79.6910041
0.311951843 49.6517266 0.0541744655 -55.0317274 0.00145761698 -79.6910041 0.220140658 -39.6602176
2.38e+09 0.143734795 -72.0446228 0.908376951 -52.0371456 0.0569194291 -51.6945029 0.311904238 49.1392828
0.908376951 -52.0371456 0.159994861 -84.1097359 0.311555953 40.794556 0.0542737759 -55.7269222
0.0569194291 -51.6945029 0.311555953 40.794556 0.222418575 -42.7624454 0.00147541889 -80.4147235
0.311904238 49.1392828 0.0542737759 -55.7269222 0.00147541889 -80.4147235 0.220377417 -40.1523967
2.41e+09 0.143912105 -72.8286261 0.908230083 -52.6899126 0.0570279993 -52.360125 0.311856746 48.626926
0.908230083 -52.6899126 0.160486531 -84.9983429 0.31149333 40.1775156 0.0543723342 -56.4227923
0.0570279993 -52.360125 0.31149333 40.1775156 0.222702932 -43.286359 0.00149319107 -81.1423209
0.311856746 48.626926 0.0543723342 -56.4227923 0.00149319107 -81.1423209 0.220616571 -40.6440759
2.44e+09 0.144087578 -73.6088487 0.908082395 -53.342581 0.0571350356 -53.0266168 0.311809376 48.1146554
0.908082395 -53.342581 0.160976612 -85.8826491 0.311430607 39.5605959 0.0544701358 -57.119328
0.0571350356 -53.0266168 0.311430607 39.5605959 0.222989913 -43.8097483 0.00151093176 -81.873667
0.311809376 48.1146554 0.0544701358 -57.119328 0.00151093176 -81.873667 0.220858101 -41.1352515
2.47e+09 0.14426112 -74.3852829 0.90793392 -53.9951506 0.0572405296 -53.6939601 0.311762139 47.6024703
0.90793392 -53.9951506 0.161464941 -86.7626835 0.311367795 38.9437971 0.0545671766 -57.8165195
0.0572405296 -53.6939601 0.311367795 38.9437971 0.223279488 -44.3326095 0.0015286392 -82.608638
