! 1-Port measurement of an SMA termination
# Hz S  dB   R 50
10000000 -46.547264 179.83647
13196000 -46.448975 177.98088
16392000 -46.471737 178.62129
19588000 -47.135799 176.82254
22784000 -47.106884 176.92908
25980000 -47.292145 177.37465
29176000 -47.270283 177.71713
32372000 -47.354538 177.47128
35568000 -47.340954 177.07822
38764000 -47.423103 176.85228
41960000 -47.420998 176.97928
45156000 -47.401905 177.11948
48352000 -47.321171 176.48689
51548000 -47.337296 176.37839
54744000 -47.422596 176.39534
57940000 -47.370148 175.75504
61136000 -47.370712 176.2007
64332000 -47.410381 176.62627
67528000 -47.587791 177.66452
70724000 -47.560715 177.63713
73920000 -47.685158 178.11337
77116000 -47.731186 178.34489
80312000 -47.849838 178.49127
83508000 -47.831467 177.85092
86704000 -47.840988 177.88152
89900000 -47.926178 178.02696
93096000 -47.915817 178.28392
96292000 -47.938335 178.53708
99488000 -47.944946 178.69876
102684000 -47.930405 178.92812
105880000 -47.944481 179.09435
109076000 -47.961533 179.25505
112272000 -48.03241 179.6851
115468000 -48.018299 179.86151
118664000 -48.05542 -179.92491
121860000 -48.068565 -179.76459
125056000 -48.121674 -179.22702
128252000 -48.118462 -178.98708
131448000 -48.088215 -178.45607
134644000 -48.110619 -178.54509
137840000 -48.138199 -178.11897
141036000 -48.174751 -177.87193
144232000 -48.181828 -177.60091
147428000 -48.21265 -177.29767
150624000 -48.22324 -176.6906
153820000 -48.236282 -176.50084
157016000 -48.270737 -176.04672
160212000 -48.238789 -175.7224
163408000 -48.273266 -175.21127
166604000 -48.2855 -174.81836
169800000 -48.267387 -174.49551
172996000 -48.294464 -174.03883
176192000 -48.335327 -173.75334
179388000 -48.356739 -173.23857
182584000 -48.425968 -172.87181
185780000 -48.34166 -172.10136
188976000 -48.37339 -171.81557
192172000 -48.388542 -171.30165
195368000 -48.346252 -171.45357
198564000 -48.355438 -170.80811
201760000 -48.401752 -170.45558
204956000 -48.346272 -170.02655
208152000 -48.348991 -169.91965
211348000 -48.379913 -169.33221
214544000 -48.35247 -168.7088
217740000 -48.339516 -168.21198
220936000 -48.342175 -168.32825
224132000 -48.375641 -167.69894
227328000 -48.348251 -167.25642
230524000 -48.347893 -166.91496
233720000 -48.357376 -166.7885
236916000 -48.397125 -165.88974
240112000 -48.378139 -165.95068
243308000 -48.37178 -165.28227
246504000 -48.383938 -165.0992
249700000 -48.378075 -164.25806
252896000 -48.408817 -164.17679
256092000 -48.370541 -163.27301
259288000 -48.466946 -163.1026
262484000 -48.420994 -162.96227
265680000 -48.33601 -162.18901
268876000 -48.301445 -162.47614
272072000 -48.363136 -161.88629
275268000 -48.325317 -161.96387
278464000 -48.37841 -161.55392
281660000 -48.333561 -160.96996
284856000 -48.239346 -161.18108
288052000 -48.233837 -161.64984
291248000 -48.321323 -160.15909
294444000 -48.229801 -160.21613
297640000 -48.257099 -159.98706
300836000 -48.307716 -159.52631
304032000 -48.135647 -159.98976
307228000 -48.237534 -159.38069
310424000 -48.144695 -159.36484
313620000 -48.176041 -158.97151
316816000 -48.167355 -158.44136
320012000 -48.160461 -157.76764
323208000 -48.113602 -158.06261
326404000 -48.117241 -158.17279
329600000 -48.083084 -157.47626
332796000 -48.060425 -157.47394
335992000 -48.066376 -156.83511
339188000 -48.067238 -157.03207
342384000 -48.064194 -157.54152
345580000 -47.958187 -156.82101
348776000 -47.952389 -156.89973
351972000 -47.995995 -156.99852
355168000 -48.026062 -156.52434
358364000 -48.016132 -156.48735
361560000 -47.972065 -156.13988
364756000 -47.902615 -155.99814
367952000 -47.830635 -156.12202
371148000 -47.811447 -156.15596
374344000 -47.878506 -155.98007
377540000 -47.839531 -156.0107
380736000 -47.793018 -155.75938
383932000 -47.825706 -155.43977
387128000 -47.77132 -155.15152
390324000 -47.721821 -155.76526
393520000 -47.681103 -155.16484
396716000 -47.712132 -155.21381
399912000 -47.62534 -155.44513
403108000 -47.620365 -155.30431
406304000 -47.61171 -154.70372
409500000 -47.5769 -154.55632
412696000 -47.451477 -154.82471
415892000 -47.3904 -154.28685
419088000 -47.375511 -154.47844
422284000 -47.312927 -153.83018
425480000 -47.298462 -154.19818
428676000 -47.321781 -153.36504
431872000 -47.314602 -153.49461
435068000 -47.261269 -153.05255
438264000 -47.240543 -153.03061
441460000 -47.206818 -153.08009
444656000 -47.172749 -152.63199
447852000 -47.15052 -152.51466
451048000 -47.126907 -152.12305
454244000 -47.081966 -152.20349
457440000 -47.075787 -152.33168
460636000 -47.062073 -151.41095
463832000 -47.082275 -151.93118
467028000 -47.020847 -152.10191
470224000 -47.038822 -151.72472
473420000 -47.042412 -151.64725
476616000 -47.064838 -151.55904
479812000 -47.057503 -151.36253
483008000 -47.03368 -151.18082
486204000 -46.994572 -151.1411
489400000 -46.960655 -151.06078
492596000 -46.991913 -150.80067
495792000 -46.986111 -150.77902
498988000 -46.941059 -150.73293
502184000 -46.953037 -150.25595
505380000 -46.982433 -150.30347
508576000 -46.845394 -149.88048
511772000 -46.87175 -150.11565
514968000 -46.848591 -149.75851
518164000 -46.765823 -149.39473
521360000 -46.740902 -149.54292
524556000 -46.726009 -149.2291
527752000 -46.690983 -149.29376
530948000 -46.639336 -149.14626
534144000 -46.713879 -148.82039
537340000 -46.64452 -148.84546
540536000 -46.60854 -148.83592
543732000 -46.566532 -149.01308
546928000 -46.567081 -148.6263
550124000 -46.543972 -148.72769
553320000 -46.407375 -148.80873
556516000 -46.431469 -148.46629
559712000 -46.410858 -148.54791
562908000 -46.394699 -148.52332
566104000 -46.3367 -148.19107
569300000 -46.283455 -148.35396
572496000 -46.288025 -147.79767
575692000 -46.238792 -148.27762
578888000 -46.199768 -147.85204
582084000 -46.177872 -147.2095
585280000 -46.134953 -147.33223
588476000 -46.084194 -147.54637
591672000 -46.007587 -147.22
594868000 -46.048203 -147.20038
598064000 -46.044544 -147.42516
601260000 -46.001144 -147.23576
604456000 -45.956264 -147.03906
607652000 -45.92749 -146.82103
610848000 -45.944187 -146.99509
614044000 -45.914436 -146.61174
617240000 -45.913288 -146.78308
620436000 -45.878906 -146.60666
623632000 -45.882244 -146.75046
626828000 -45.813442 -146.34911
630024000 -45.79887 -146.13176
633220000 -45.773674 -146.18977
636416000 -45.727989 -146.26239
639612000 -45.70488 -145.94705
642808000 -45.654858 -145.92329
646004000 -45.651981 -146.17274
649200000 -45.558228 -145.59843
652396000 -45.611351 -145.52574
655592000 -45.605804 -145.6022
658788000 -45.549095 -145.72812
661984000 -45.50119 -145.3338
665180000 -45.491402 -145.27577
668376000 -45.459579 -145.3443
671572000 -45.478447 -145.07716
674768000 -45.438557 -145.1382
677964000 -45.389648 -144.96568
681160000 -45.398674 -145.11995
684356000 -45.344536 -145.04576
687552000 -45.295578 -144.97421
690748000 -45.335732 -145.26277
693944000 -45.296406 -145.16397
697140000 -45.225548 -144.97626
700336000 -45.179317 -145.00815
703532000 -45.189072 -144.65552
706728000 -45.174557 -144.79651
709924000 -45.126064 -144.76433
713120000 -45.125633 -144.47589
716316000 -45.126526 -144.79555
719512000 -45.121021 -144.70679
722708000 -45.060677 -144.44388
725904000 -45.021519 -144.21313
729100000 -44.975807 -144.12561
732296000 -44.934734 -144.14081
735492000 -44.922344 -144.06873
738688000 -44.883629 -144.20227
741884000 -44.878574 -143.87752
745080000 -44.825317 -143.75334
748276000 -44.847019 -143.81023
751472000 -44.802296 -143.93622
754668000 -44.78302 -143.54037
757864000 -44.764187 -143.65741
761060000 -44.710209 -143.44818
764256000 -44.671974 -143.52914
767452000 -44.706707 -143.66292
770648000 -44.661278 -143.56773
773844000 -44.613541 -143.73238
777040000 -44.583946 -143.53674
780236000 -44.598583 -143.68562
783432000 -44.549141 -143.33322
786628000 -44.532112 -143.55412
789824000 -44.536755 -143.4808
793020000 -44.487888 -143.47119
796216000 -44.484436 -143.46426
799412000 -44.462414 -143.26379
802608000 -44.424511 -143.34076
805804000 -44.379726 -143.47525
809000000 -44.365284 -143.53452
812196000 -44.328609 -143.34587
815392000 -44.319954 -143.50446
818588000 -44.285465 -143.48164
821784000 -44.251217 -143.23778
824980000 -44.255081 -143.36386
828176000 -44.244495 -143.14241
831372000 -44.189281 -143.4223
834568000 -44.198513 -143.21375
837764000 -44.178791 -143.4453
840960000 -44.153442 -143.25328
844156000 -44.086441 -143.36012
847352000 -44.084614 -143.4892
850548000 -44.091709 -143.58337
853744000 -44.013401 -143.61423
856940000 -43.983345 -143.79153
860136000 -43.950798 -143.51149
863332000 -43.954372 -143.63217
866528000 -43.913029 -143.744
869724000 -43.924404 -143.86905
872920000 -43.884743 -143.86816
876116000 -43.845993 -143.97876
879312000 -43.827263 -144.16617
882508000 -43.770515 -144.03954
885704000 -43.752178 -144.05342
888900000 -43.766735 -144.03401
892096000 -43.705929 -144.10022
895292000 -43.722408 -144.30292
898488000 -43.669765 -144.2468
901684000 -43.678467 -144.2021
904880000 -43.639423 -144.32806
908076000 -43.629417 -144.23311
911272000 -43.594948 -144.39091
914468000 -43.550232 -144.57831
917664000 -43.573956 -144.53955
920860000 -43.559841 -144.35999
924056000 -43.541855 -144.55008
927252000 -43.521214 -144.52744
930448000 -43.493523 -144.59119
933644000 -43.493378 -144.3707
936840000 -43.478172 -144.51428
940036000 -43.486046 -144.33272
943232000 -43.454151 -144.28441
946428000 -43.458839 -144.22025
949624000 -43.443695 -144.46127
952820000 -43.463814 -144.32591
956016000 -43.412579 -144.29482
959212000 -43.38623 -144.08366
962408000 -43.387966 -144.29594
965604000 -43.374798 -144.30539
968800000 -43.370495 -144.45515
971996000 -43.348846 -144.39703
975192000 -43.363159 -144.3822
978388000 -43.324379 -144.478
981584000 -43.318848 -144.63957
984780000 -43.300121 -144.51779
987976000 -43.289368 -144.54178
991172000 -43.262718 -144.76604
994368000 -43.275154 -144.53912
997564000 -43.215092 -144.61435
1000760000 -43.244812 -144.69537
1003956000 -43.204926 -144.64693
1007152000 -43.183819 -144.71989
1010348000 -43.156586 -144.61296
1013544000 -43.159191 -144.84335
1016740000 -43.12059 -144.74481
1019936000 -43.09647 -144.85342
1023132000 -43.097866 -144.81114
1026328000 -43.07465 -144.86183
1029524000 -43.066944 -145.00212
1032720000 -43.044125 -145.07648
1035916000 -43.018196 -145.12723
1039112000 -42.988651 -145.2142
1042308000 -42.986362 -145.1499
1045504000 -42.924789 -145.10349
1048700000 -42.926361 -145.42032
1051896000 -42.877583 -145.3903
1055092000 -42.881325 -145.41983
1058288000 -42.852669 -145.27536
1061484000 -42.841972 -145.6216
1064680000 -42.820751 -145.51266
1067876000 -42.843529 -145.46359
1071072000 -42.792969 -145.5546
1074268000 -42.781345 -145.59216
1077464000 -42.767101 -145.53804
1080660000 -42.734787 -145.56413
1083856000 -42.71957 -145.60153
1087052000 -42.718803 -145.5575
1090248000 -42.69429 -145.62051
1093444000 -42.654556 -145.75302
1096640000 -42.678268 -145.63251
1099836000 -42.678558 -145.80363
1103032000 -42.62653 -145.6492
1106228000 -42.625118 -145.70595
1109424000 -42.617195 -145.78717
1112620000 -42.593857 -145.86546
1115816000 -42.575512 -145.95461
1119012000 -42.533417 -145.82045
1122208000 -42.536762 -146.03851
1125404000 -42.500977 -146.1548
1128600000 -42.500538 -145.92432
1131796000 -42.535633 -146.01945
1134992000 -42.469833 -146.12341
1138188000 -42.47718 -146.14415
1141384000 -42.454308 -146.23485
1144580000 -42.464279 -146.25203
1147776000 -42.431664 -146.43532
1150972000 -42.442726 -146.2421
1154168000 -42.428352 -146.40941
1157364000 -42.411205 -146.34395
1160560000 -42.394768 -146.51651
1163756000 -42.389435 -146.43765
1166952000 -42.392616 -146.56287
1170148000 -42.345684 -146.52231
1173344000 -42.335274 -146.63257
1176540000 -42.31654 -146.80641
1179736000 -42.319447 -146.71567
1182932000 -42.302586 -146.68137
1186128000 -42.286217 -146.79134
1189324000 -42.268398 -146.90039
1192520000 -42.259491 -146.84114
1195716000 -42.230682 -146.77667
1198912000 -42.258991 -146.96255
1202108000 -42.233662 -147.03113
1205304000 -42.211842 -146.90182
1208500000 -42.211147 -147.02614
1211696000 -42.198322 -147.16534
1214892000 -42.190861 -147.05798
1218088000 -42.15242 -147.22679
1221284000 -42.148216 -147.0753
1224480000 -42.120995 -147.11317
1227676000 -42.154705 -147.22836
1230872000 -42.107941 -147.26947
1234068000 -42.105251 -147.47786
1237264000 -42.086239 -147.48097
1240460000 -42.0714 -147.71504
1243656000 -42.049709 -147.58853
1246852000 -42.031631 -147.68687
1250048000 -42.013447 -147.78391
1253244000 -42.006413 -147.8334
1256440000 -41.993343 -147.94246
1259636000 -41.968868 -147.80208
1262832000 -41.969536 -148.02104
1266028000 -41.936779 -147.99434
1269224000 -41.925022 -148.10667
1272420000 -41.93943 -148.24883
1275616000 -41.92355 -148.29121
1278812000 -41.891781 -148.25351
1282008000 -41.888874 -148.6169
1285204000 -41.885204 -148.43489
1288400000 -41.840401 -148.42276
1291596000 -41.849937 -148.60484
1294792000 -41.840347 -148.66402
1297988000 -41.824593 -148.73405
1301184000 -41.788822 -148.85184
1304380000 -41.76199 -148.85953
1307576000 -41.765209 -148.87544
1310772000 -41.753235 -148.89848
1313968000 -41.743851 -148.82309
1317164000 -41.700912 -149.10629
1320360000 -41.722202 -149.11145
1323556000 -41.708866 -149.05226
1326752000 -41.70499 -149.05402
1329948000 -41.677155 -149.15494
1333144000 -41.688828 -149.46341
1336340000 -41.667824 -149.2171
1339536000 -41.651913 -149.41075
1342732000 -41.647549 -149.22861
1345928000 -41.622978 -149.19273
1349124000 -41.607487 -149.21785
1352320000 -41.62215 -149.43945
1355516000 -41.624668 -149.32771
1358712000 -41.618637 -149.31346
1361908000 -41.614639 -149.3058
1365104000 -41.583405 -149.47847
1368300000 -41.575859 -149.33893
1371496000 -41.547718 -149.52879
1374692000 -41.563618 -149.47896
1377888000 -41.53793 -149.52187
1381084000 -41.552246 -149.55542
1384280000 -41.525883 -149.61552
1387476000 -41.525417 -149.66487
1390672000 -41.506409 -149.63795
1393868000 -41.530727 -149.77356
1397064000 -41.494438 -149.64323
1400260000 -41.493183 -149.76755
1403456000 -41.478313 -149.80745
1406652000 -41.437351 -149.9191
1409848000 -41.4646 -149.97356
1413044000 -41.451275 -150.03958
1416240000 -41.433464 -149.97707
1419436000 -41.458836 -150.11758
1422632000 -41.436817 -150.07217
1425828000 -41.442162 -150.17319
1429024000 -41.438824 -150.30995
1432220000 -41.419235 -150.29056
1435416000 -41.414196 -150.2963
1438612000 -41.391132 -150.334
1441808000 -41.407902 -150.55835
1445004000 -41.401794 -150.41223
1448200000 -41.386688 -150.50378
1451396000 -41.400459 -150.61826
1454592000 -41.378555 -150.79802
1457788000 -41.378887 -150.66559
1460984000 -41.371521 -150.74954
1464180000 -41.356724 -150.83031
1467376000 -41.358925 -150.77701
1470572000 -41.33778 -150.96901
1473768000 -41.3255 -151.1076
1476964000 -41.341438 -151.14995
1480160000 -41.29805 -151.3773
1483356000 -41.309116 -151.20576
1486552000 -41.289436 -151.23019
1489748000 -41.27916 -151.36841
1492944000 -41.286594 -151.42708
1496140000 -41.245056 -151.49945
1499336000 -41.279076 -151.51027
1502532000 -41.241753 -151.50246
1505728000 -41.273163 -151.64436
1508924000 -41.226948 -151.77966
1512120000 -41.257538 -151.68204
1515316000 -41.247532 -151.67215
1518512000 -41.211391 -151.71529
1521708000 -41.201328 -151.74431
1524904000 -41.212891 -151.92035
1528100000 -41.215977 -151.77553
1531296000 -41.201092 -151.72928
1534492000 -41.208729 -151.82445
1537688000 -41.197083 -151.6765
1540884000 -41.201694 -151.75459
1544080000 -41.173977 -151.95145
1547276000 -41.195732 -151.89153
1550472000 -41.175041 -152.02052
1553668000 -41.172421 -152.04295
1556864000 -41.200188 -151.98434
1560060000 -41.178528 -152.10654
1563256000 -41.19799 -152.20456
1566452000 -41.177696 -152.08185
1569648000 -41.153843 -152.18549
1572844000 -41.156368 -152.30313
1576040000 -41.156532 -152.3588
1579236000 -41.131702 -152.4763
1582432000 -41.139111 -152.49159
1585628000 -41.134335 -152.50218
1588824000 -41.13422 -152.70273
1592020000 -41.12627 -152.70633
1595216000 -41.109055 -152.61821
1598412000 -41.127369 -152.73439
1601608000 -41.106178 -152.88115
1604804000 -41.088276 -152.81212
1608000000 -41.076626 -152.83199
1611196000 -41.078518 -152.8271
1614392000 -41.077335 -152.87164
1617588000 -41.075859 -153.05367
1620784000 -41.059811 -152.95497
1623980000 -41.07864 -152.80388
1627176000 -41.063728 -152.99246
1630372000 -41.078957 -152.76295
1633568000 -41.062363 -152.79051
1636764000 -41.060242 -153.0383
1639960000 -41.023006 -152.94475
1643156000 -41.048878 -153.0154
1646352000 -41.053688 -153.13379
1649548000 -41.025967 -153.26801
1652744000 -41.015354 -153.23308
1655940000 -41.028877 -153.14302
1659136000 -40.993343 -153.28987
1662332000 -40.997505 -153.367
1665528000 -40.98402 -153.39214
1668724000 -40.99213 -153.38045
1671920000 -41.004105 -153.48955
1675116000 -41.003895 -153.41364
1678312000 -40.968704 -153.47208
1681508000 -40.978504 -153.45161
1684704000 -40.976048 -153.59589
1687900000 -40.957577 -153.42125
1691096000 -40.974716 -153.50861
1694292000 -40.974091 -153.43822
1697488000 -40.97871 -153.42468
1700684000 -40.976784 -153.49982
1703880000 -40.973297 -153.47333
1707076000 -40.950184 -153.44522
1710272000 -40.955872 -153.68848
1713468000 -40.975914 -153.53574
1716664000 -40.974918 -153.42583
1719860000 -40.948322 -153.60719
1723056000 -40.926128 -153.67189
1726252000 -40.95789 -153.63289
1729448000 -40.951672 -153.68651
1732644000 -40.925045 -153.78654
1735840000 -40.929295 -153.632
1739036000 -40.947674 -153.79813
1742232000 -40.918644 -153.92854
1745428000 -40.942772 -154.02985
1748624000 -40.909386 -153.84642
1751820000 -40.907822 -153.96893
1755016000 -40.917076 -153.895
1758212000 -40.90456 -154.01299
1761408000 -40.91864 -154.07738
1764604000 -40.908287 -154.03523
1767800000 -40.900276 -154.17146
1770996000 -40.899143 -154.31631
1774192000 -40.90424 -154.26515
1777388000 -40.855526 -154.21487
1780584000 -40.871792 -154.35924
1783780000 -40.876781 -154.43768
1786976000 -40.865246 -154.33098
1790172000 -40.884907 -154.58421
1793368000 -40.823536 -154.51091
1796564000 -40.84483 -154.54202
1799760000 -40.851357 -154.54489
1802956000 -40.818211 -154.48636
1806152000 -40.802811 -154.7435
1809348000 -40.784687 -154.70273
1812544000 -40.836395 -154.68721
1815740000 -40.832355 -154.57326
1818936000 -40.795296 -154.69034
1822132000 -40.794418 -154.59152
1825328000 -40.79377 -154.69054
1828524000 -40.787701 -154.68869
1831720000 -40.762218 -154.57674
1834916000 -40.800816 -154.67073
1838112000 -40.770706 -154.75581
1841308000 -40.795292 -154.70775
1844504000 -40.758503 -154.53529
1847700000 -40.754372 -154.68382
1850896000 -40.767147 -154.77943
1854092000 -40.772331 -154.80898
1857288000 -40.759899 -154.86234
1860484000 -40.759304 -154.8107
1863680000 -40.756222 -155.04268
1866876000 -40.756565 -155.1245
1870072000 -40.753872 -155.14406
1873268000 -40.733284 -155.22321
1876464000 -40.716301 -155.32071
1879660000 -40.752678 -155.25653
1882856000 -40.736946 -155.37483
1886052000 -40.762802 -155.39323
1889248000 -40.733437 -155.54558
1892444000 -40.733994 -155.61781
1895640000 -40.732872 -155.3968
1898836000 -40.735115 -155.62697
1902032000 -40.72739 -155.61292
1905228000 -40.726463 -155.41393
1908424000 -40.734497 -155.51453
1911620000 -40.724842 -155.60089
1914816000 -40.729694 -155.60414
1918012000 -40.716263 -155.56926
1921208000 -40.706165 -155.60635
1924404000 -40.740326 -155.64186
1927600000 -40.704662 -155.75552
