! 1-Port measurement of an SMA open
# Hz S  dB   R 50
10000000 0.00023503823 -0.028586557
13196000 1.5531579e-006 -0.052778576
16392000 -0.0044062142 -0.02536311
19588000 -0.012899738 0.038612016
22784000 -0.014761422 0.062523864
25980000 -0.011625921 0.045336261
29176000 -0.0080302581 0.014366919
32372000 -0.0057707084 -0.012115411
35568000 -0.0057701897 -0.025550136
38764000 -0.0066562388 -0.021672571
41960000 -0.0061447555 -0.022720471
45156000 -0.0045401827 -0.026156219
48352000 -0.0027968439 -0.031054916
51548000 -0.0017326346 -0.029836806
54744000 -0.00071839505 -0.041165546
57940000 -0.0011862571 -0.04435277
61136000 -0.0015252102 -0.051829755
64332000 -0.0018678154 -0.060813725
67528000 -0.0015733753 -0.074101359
70724000 -0.0014760098 -0.084829606
73920000 -0.0020838026 -0.091355458
77116000 -0.0010321962 -0.098036014
80312000 -0.00092655764 -0.10156555
83508000 -0.00026430379 -0.1077086
86704000 -0.0013840843 -0.11371865
89900000 -0.0014876626 -0.11958816
93096000 -0.0019701102 -0.12705165
96292000 -0.0015795901 -0.13260163
99488000 -0.001228204 -0.13980655
102684000 -0.0013985852 -0.14528033
105880000 -0.0014615088 -0.15022215
109076000 -0.0011658017 -0.15614097
112272000 -0.0013602618 -0.16412207
115468000 -0.0008905686 -0.1677037
118664000 -0.0010684454 -0.17391317
121860000 -0.0017797661 -0.17884445
125056000 -0.0017163199 -0.18437332
128252000 -0.0014773046 -0.19031838
131448000 -0.0022226202 -0.19513759
134644000 -0.001870923 -0.20043451
137840000 -0.0021868793 -0.20592785
141036000 -0.0023617011 -0.2115027
144232000 -0.0021138447 -0.21904871
147428000 -0.0024629715 -0.22261472
150624000 -0.0027818203 -0.22609761
153820000 -0.0024642665 -0.23178738
157016000 -0.0024202357 -0.23994552
160212000 -0.0019343714 -0.2424325
163408000 -0.0018320775 -0.24980275
166604000 -0.0017494672 -0.25726736
169800000 -0.0018030731 -0.26270184
172996000 -0.0020703354 -0.27112511
176192000 -0.002006626 -0.27660227
179388000 -0.0015293534 -0.28258467
182584000 -0.0019162432 -0.29085988
185780000 -0.0015524001 -0.29638547
188976000 -0.0020555735 -0.30266064
192172000 -0.0019729589 -0.30479786
195368000 -0.0020128416 -0.31196758
198564000 -0.0027206908 -0.31823957
201760000 -0.002598434 -0.3213267
204956000 -0.0027986569 -0.32690603
208152000 -0.0026805424 -0.33278772
211348000 -0.0028989015 -0.33662233
214544000 -0.0030556188 -0.34116104
217740000 -0.0027893321 -0.34573755
220936000 -0.0026818377 -0.34800228
224132000 -0.0029470818 -0.35491431
227328000 -0.0034322822 -0.35922784
230524000 -0.002685982 -0.36092725
233720000 -0.0026665556 -0.36922103
236916000 -0.0030807462 -0.37373286
240112000 -0.0025815982 -0.37558004
243308000 -0.0028685948 -0.38325521
246504000 -0.0030061423 -0.38700733
249700000 -0.0033879825 -0.39329875
252896000 -0.0036185535 -0.40362519
256092000 -0.0039058777 -0.40604073
259288000 -0.0036071541 -0.41090414
262484000 -0.0033511957 -0.40883189
265680000 -0.0036623373 -0.41962084
268876000 -0.0037548293 -0.42185983
272072000 -0.0040206569 -0.43060428
275268000 -0.0038607956 -0.43234059
278464000 -0.0032400608 -0.43237975
281660000 -0.0049172337 -0.44026965
284856000 -0.0032993841 -0.43676093
288052000 -0.0046339887 -0.442871
291248000 -0.0038297051 -0.44790107
294444000 -0.0039903428 -0.45359036
297640000 -0.003520624 -0.45652413
300836000 -0.0034830591 -0.46062467
304032000 -0.0043212231 -0.46201023
307228000 -0.0036094857 -0.47147226
310424000 -0.0036975723 -0.47707874
313620000 -0.0036074133 -0.4825404
316816000 -0.0038732321 -0.48716432
320012000 -0.0040543401 -0.49376896
323208000 -0.0037885103 -0.49729526
326404000 -0.002879733 -0.50038373
329600000 -0.0031149399 -0.5106622
332796000 -0.0034390178 -0.51505256
335992000 -0.0039895652 -0.52462578
339188000 -0.0037190758 -0.52111757
342384000 -0.0024241207 -0.52728468
345580000 -0.0038605367 -0.53198451
348776000 -0.0032151917 -0.5337882
351972000 -0.0026639653 -0.53172845
355168000 -0.003542904 -0.54011035
358364000 -0.0027082576 -0.54470032
361560000 -0.0027691282 -0.55062425
364756000 -0.0021498441 -0.55797195
367952000 -0.0026002473 -0.55800849
371148000 -0.0031346274 -0.56035841
374344000 -0.0028359571 -0.56882024
377540000 -0.0009791177 -0.57310486
380736000 -0.0022793398 -0.58015102
383932000 -0.0015037174 -0.5806697
387128000 -0.0023218154 -0.58882082
390324000 -0.0018002244 -0.58894426
393520000 -0.0014690183 -0.59903783
396716000 -0.0022894407 -0.60441941
399912000 -0.002644798 -0.60439289
403108000 -0.0026445389 -0.60459518
406304000 -0.002644798 -0.61797535
409500000 -0.0029030459 -0.61920661
412696000 -0.0039874925 -0.62000656
415892000 -0.0043523172 -0.62926024
419088000 -0.0042108404 -0.63490844
422284000 -0.0050981264 -0.64239061
425480000 -0.0051867613 -0.64750099
428676000 -0.0047083613 -0.65544438
431872000 -0.005189612 -0.65876997
435068000 -0.005472634 -0.66155654
438264000 -0.0048516686 -0.66988492
441460000 -0.0050185639 -0.67169482
444656000 -0.0056035249 -0.68368095
447852000 -0.0058819083 -0.68864822
451048000 -0.0049861688 -0.69949555
454244000 -0.0055607581 -0.69856781
457440000 -0.0054850751 -0.70291901
460636000 -0.0051774313 -0.71241158
463832000 -0.0053733671 -0.71529317
467028000 -0.0049239718 -0.7142874
470224000 -0.0053513367 -0.72304302
473420000 -0.0053251595 -0.72712725
476616000 -0.0051266346 -0.72955072
479812000 -0.0045580626 -0.73544711
483008000 -0.0043852255 -0.7469669
486204000 -0.0046842615 -0.74571967
489400000 -0.0039965608 -0.74669766
492596000 -0.0042375289 -0.75465965
495792000 -0.0042805416 -0.75129586
498988000 -0.004073773 -0.75972646
502184000 -0.0034294324 -0.76412386
505380000 -0.0034825408 -0.77138144
508576000 -0.0036429067 -0.77499068
511772000 -0.0043549081 -0.78191751
514968000 -0.0036602649 -0.78219962
518164000 -0.0036483472 -0.79562247
521360000 -0.0041434718 -0.79051322
524556000 -0.0030351547 -0.80020779
527752000 -0.00323203 -0.80130732
530948000 -0.0042986795 -0.81057388
534144000 -0.0026121619 -0.81510222
537340000 -0.0034423857 -0.81516129
540536000 -0.0034612974 -0.81839031
543732000 -0.0045476975 -0.82348609
546928000 -0.003131778 -0.83419257
550124000 -0.0035584483 -0.83461249
553320000 -0.0050981264 -0.84091687
556516000 -0.0047959518 -0.83889872
559712000 -0.0041870023 -0.84382206
562908000 -0.0049770987 -0.85190243
566104000 -0.0054925913 -0.8574059
569300000 -0.006175085 -0.85918391
572496000 -0.0054474929 -0.86698443
575692000 -0.0059018675 -0.86115974
578888000 -0.0054189828 -0.87277615
582084000 -0.0047252057 -0.88016909
585280000 -0.0053985072 -0.88210833
588476000 -0.0059612272 -0.88687116
591672000 -0.0061857137 -0.89226025
594868000 -0.0057538599 -0.8959806
598064000 -0.0044292761 -0.89869219
601260000 -0.0056678057 -0.90188777
604456000 -0.0051141945 -0.90778542
607652000 -0.0056675463 -0.91320741
610848000 -0.0046977368 -0.91410154
614044000 -0.0047664093 -0.92259079
617240000 -0.0056859492 -0.92105049
620436000 -0.0049449634 -0.92527282
623632000 -0.0045150472 -0.92497605
626828000 -0.005274361 -0.93313169
630024000 -0.005762673 -0.93900299
633220000 -0.0052606249 -0.94120264
636416000 -0.0062694452 -0.94715345
639612000 -0.0049921297 -0.95416355
642808000 -0.0059174201 -0.95650226
646004000 -0.005939194 -0.95900989
649200000 -0.0054817055 -0.96688521
652396000 -0.0057212007 -0.97604769
655592000 -0.004435495 -0.98021549
658788000 -0.0049203434 -0.97750092
661984000 -0.0055664605 -0.99034745
665180000 -0.0048138332 -0.99015737
668376000 -0.0055708666 -0.99166375
671572000 -0.0054975161 -0.99627286
674768000 -0.0051792455 -0.99908155
677964000 -0.005818143 -1.0080519
681160000 -0.0058463966 -1.0077714
684356000 -0.0057582664 -1.0077596
687552000 -0.0059280479 -1.019055
690748000 -0.0069074659 -1.0155602
693944000 -0.0066829426 -1.020995
697140000 -0.007048253 -1.0228468
700336000 -0.007066662 -1.0254956
703532000 -0.0067910547 -1.03821
706728000 -0.0063334764 -1.0344244
709924000 -0.0069865445 -1.0412843
713120000 -0.0055203247 -1.0423868
716316000 -0.0062445588 -1.0433317
719512000 -0.0062735928 -1.0487751
722708000 -0.0057136836 -1.0487075
725904000 -0.0062888879 -1.0637842
729100000 -0.0060397703 -1.0693543
732296000 -0.0060866894 -1.0763496
735492000 -0.0057434919 -1.079875
738688000 -0.0058251414 -1.0814635
741884000 -0.0060892813 -1.0896212
745080000 -0.005466932 -1.0956713
748276000 -0.0060322527 -1.0952898
751472000 -0.0064060632 -1.1029698
754668000 -0.0059612272 -1.1081072
757864000 -0.0059272703 -1.106604
761060000 -0.0067202756 -1.1134068
764256000 -0.005997777 -1.1184438
767452000 -0.0072033051 -1.1180085
770648000 -0.0072118617 -1.1234729
773844000 -0.0078222733 -1.1254395
777040000 -0.0072580157 -1.1349429
780236000 -0.0082494048 -1.1325115
783432000 -0.0078694709 -1.1381458
786628000 -0.009807351 -1.1331952
789824000 -0.007715432 -1.1418898
793020000 -0.0082172453 -1.1434003
796216000 -0.0077198404 -1.1477708
799412000 -0.0079044802 -1.157274
802608000 -0.0084493691 -1.1560721
805804000 -0.0081609664 -1.1615256
809000000 -0.0086815059 -1.1608652
812196000 -0.0078562452 -1.1705586
815392000 -0.0087476475 -1.1704068
818588000 -0.0081173964 -1.178413
821784000 -0.0091224704 -1.1807276
824980000 -0.0079374155 -1.1910968
828176000 -0.0073482501 -1.1862298
831372000 -0.0087958928 -1.1897049
834568000 -0.0089525646 -1.1903453
837764000 -0.007638155 -1.1896532
840960000 -0.0081796395 -1.2032429
844156000 -0.0077605536 -1.2038532
847352000 -0.0080460776 -1.2032423
850548000 -0.0087896679 -1.2046429
853744000 -0.0081358096 -1.2147907
856940000 -0.008699663 -1.2177742
860136000 -0.0081819734 -1.2116208
863332000 -0.0077587385 -1.2271538
866528000 -0.0083829723 -1.228201
869724000 -0.0079770936 -1.2317079
872920000 -0.0074299299 -1.2404869
876116000 -0.0073640677 -1.2487227
879312000 -0.0079415645 -1.2440187
882508000 -0.0081070224 -1.2548864
885704000 -0.0087987464 -1.2540623
888900000 -0.0074903481 -1.2511127
892096000 -0.008360927 -1.2664262
895292000 -0.008309315 -1.2676497
898488000 -0.0078214947 -1.275984
901684000 -0.008178602 -1.2728395
904880000 -0.0084117614 -1.2831761
908076000 -0.0090161161 -1.2807434
911272000 -0.0086846184 -1.2889488
914468000 -0.008693438 -1.2922602
917664000 -0.0078909947 -1.2905153
920860000 -0.0094874669 -1.2956313
924056000 -0.008049449 -1.3024927
927252000 -0.0089572333 -1.3020655
930448000 -0.0090926392 -1.3081589
933644000 -0.0088054901 -1.3108906
936840000 -0.0087925214 -1.3116716
940036000 -0.0083087962 -1.3173156
943232000 -0.0070967386 -1.3200258
946428000 -0.0079662018 -1.3263141
949624000 -0.0077517368 -1.3275865
952820000 -0.006771869 -1.3329085
956016000 -0.0071867108 -1.3387245
959212000 -0.0068543158 -1.348042
962408000 -0.0066850167 -1.3452594
965604000 -0.0066772387 -1.3465676
968800000 -0.0068006474 -1.3529046
971996000 -0.0070549939 -1.351392
975192000 -0.0068532787 -1.3619673
978388000 -0.0069279484 -1.3696303
981584000 -0.0074384869 -1.366897
984780000 -0.0074403021 -1.3752704
987976000 -0.0079695731 -1.3784341
991172000 -0.0077232113 -1.3774723
994368000 -0.0076467125 -1.3782315
997564000 -0.0077403267 -1.3895612
1000760000 -0.0084257675 -1.3895897
1003956000 -0.0083155399 -1.3921963
1007152000 -0.0072341608 -1.3976061
1010348000 -0.0078020454 -1.4025289
1013544000 -0.0076506021 -1.4024651
1016740000 -0.0078819189 -1.4093391
1019936000 -0.0072123804 -1.4134188
1023132000 -0.0069626914 -1.4210013
1026328000 -0.0077219149 -1.4189694
1029524000 -0.0086008403 -1.4228081
1032720000 -0.0069847298 -1.4307334
1035916000 -0.0075663254 -1.4330406
1039112000 -0.0076368586 -1.439388
1042308000 -0.0069717658 -1.4349749
1045504000 -0.0073705502 -1.4459187
1048700000 -0.0068444633 -1.4495457
1051896000 -0.0079952469 -1.4556226
1055092000 -0.0072808336 -1.4566926
1058288000 -0.0077312505 -1.4564441
1061484000 -0.008157854 -1.4620907
1064680000 -0.0072748694 -1.4678841
1067876000 -0.0080823852 -1.4643706
1071072000 -0.0060470286 -1.4706753
1074268000 -0.0065870178 -1.4800087
1077464000 -0.007074181 -1.4804542
1080660000 -0.0075372825 -1.480487
1083856000 -0.0069922488 -1.4947795
1087052000 -0.0073596593 -1.4920118
1090248000 -0.0079506412 -1.4984596
1093444000 -0.0084421076 -1.4995959
1096640000 -0.0083987936 -1.4981223
1099836000 -0.0086514186 -1.5038177
1103032000 -0.0082592601 -1.5068674
1106228000 -0.0087227477 -1.5112406
1109424000 -0.0086285938 -1.5154014
1112620000 -0.0089297378 -1.5170305
1115816000 -0.008613809 -1.5217936
1119012000 -0.0080849789 -1.5216172
1122208000 -0.0077068745 -1.5273433
1125404000 -0.0086755408 -1.5302153
1128600000 -0.007938453 -1.5306889
1131796000 -0.0092674801 -1.5332009
1134992000 -0.0081186928 -1.5375322
1138188000 -0.0085601192 -1.5405118
1141384000 -0.009489283 -1.5433198
1144580000 -0.00792393 -1.54662
1147776000 -0.007923671 -1.545436
1150972000 -0.0076824985 -1.5492415
1154168000 -0.0080126226 -1.5511574
1157364000 -0.0075123892 -1.5545009
1160560000 -0.0081293266 -1.5607016
1163756000 -0.0082175042 -1.554027
1166952000 -0.009177465 -1.5628958
1170148000 -0.0079534939 -1.5628901
1173344000 -0.0082921982 -1.5659376
1176540000 -0.0085284756 -1.5734766
1179736000 -0.0082068713 -1.5760503
1182932000 -0.0086480463 -1.5772585
1186128000 -0.0088000437 -1.5866488
1189324000 -0.0090599544 -1.5895519
1192520000 -0.009467232 -1.582711
1195716000 -0.0093323337 -1.5944378
1198912000 -0.0090192286 -1.5896437
1202108000 -0.0093346685 -1.6003687
1205304000 -0.0086716497 -1.5974646
1208500000 -0.0092926426 -1.5975693
1211696000 -0.0093554212 -1.6071075
1214892000 -0.009503033 -1.6087563
1218088000 -0.0086519374 -1.6082358
1221284000 -0.0087888902 -1.6123096
1224480000 -0.0082566664 -1.6165571
1227676000 -0.0088277981 -1.6155914
1230872000 -0.0081539638 -1.6221907
1234068000 -0.0091333659 -1.6278613
1237264000 -0.0080956118 -1.6340376
1240460000 -0.0082966071 -1.6393965
1243656000 -0.0093494551 -1.638559
1246852000 -0.0095580313 -1.6397415
1250048000 -0.0091730542 -1.64634
1253244000 -0.0089372601 -1.6500751
1256440000 -0.0085839815 -1.6460152
1259636000 -0.0095017357 -1.6547638
1262832000 -0.0090983463 -1.6581907
1266028000 -0.0077701486 -1.6606883
1269224000 -0.0083666332 -1.6629568
1272420000 -0.0072517926 -1.6719279
1275616000 -0.0085990252 -1.6690273
1278812000 -0.0082841581 -1.6701483
1282008000 -0.0087930402 -1.6732079
1285204000 -0.0088874567 -1.672887
1288400000 -0.0073824776 -1.6789992
1291596000 -0.0080320733 -1.6792898
1294792000 -0.0081010582 -1.6829123
1297988000 -0.0084877554 -1.6887217
1301184000 -0.0081500737 -1.6920962
1304380000 -0.0089001674 -1.6963841
1307576000 -0.0091582686 -1.6962566
1310772000 -0.0083998311 -1.7057936
1313968000 -0.0087201539 -1.7049674
1317164000 -0.0089144334 -1.7119929
1320360000 -0.0085349604 -1.7115171
1323556000 -0.0077641844 -1.7126203
1326752000 -0.007911223 -1.7221636
1329948000 -0.0080027683 -1.7240013
1333144000 -0.0084981304 -1.7235199
1336340000 -0.0086304089 -1.7287395
1339536000 -0.0088226097 -1.7291147
1342732000 -0.0084024249 -1.7374851
1345928000 -0.0088532176 -1.73526
1349124000 -0.0090005528 -1.7440724
1352320000 -0.0089344066 -1.7424431
1355516000 -0.0090916017 -1.7493802
1358712000 -0.0095868288 -1.7454797
1361908000 -0.0098221395 -1.7498454
1365104000 -0.010103129 -1.7578577
1368300000 -0.0096483147 -1.7616881
1371496000 -0.0097014988 -1.7655435
1374692000 -0.0094773499 -1.7650157
1377888000 -0.0091608623 -1.7753714
1381084000 -0.0094848732 -1.773399
1384280000 -0.0093997819 -1.7789946
1387476000 -0.0091079436 -1.7836138
1390672000 -0.0098932283 -1.7856224
1393868000 -0.0095790457 -1.7883848
1397064000 -0.0089188432 -1.7875254
1400260000 -0.010213661 -1.7913647
1403456000 -0.0089839511 -1.7927116
1406652000 -0.0088578863 -1.7964661
1409848000 -0.0087901866 -1.7959604
1413044000 -0.009361648 -1.802145
1416240000 -0.0094412901 -1.8069348
1419436000 -0.0095494706 -1.8072823
1422632000 -0.0077431793 -1.8091754
1425828000 -0.0082019437 -1.8063246
1429024000 -0.0088840844 -1.8082896
1432220000 -0.0088599613 -1.8088095
1435416000 -0.0079379342 -1.8141439
1438612000 -0.0086553087 -1.8198805
1441808000 -0.0083269514 -1.8226029
1445004000 -0.0081127286 -1.8239312
1448200000 -0.0088166436 -1.821471
1451396000 -0.0088835657 -1.8235201
1454592000 -0.0087349387 -1.8269552
1457788000 -0.0086566061 -1.828018
1460984000 -0.0085593406 -1.8309919
1464180000 -0.0097017586 -1.8321238
1467376000 -0.0087173004 -1.8337203
1470572000 -0.0086687971 -1.8423744
1473768000 -0.0078855492 -1.8349899
1476964000 -0.0078590978 -1.8418782
1480160000 -0.0081049483 -1.8495437
1483356000 -0.0080567105 -1.8502876
1486552000 -0.0081428122 -1.8498204
1489748000 -0.0083788233 -1.8518457
1492944000 -0.008558563 -1.8560107
1496140000 -0.0077107642 -1.8596548
1499336000 -0.0084740091 -1.8640814
1502532000 -0.0065273903 -1.8645647
1505728000 -0.0074999421 -1.8705504
1508924000 -0.0075945905 -1.8740087
1512120000 -0.0075053875 -1.8725941
1515316000 -0.0081023546 -1.8756061
1518512000 -0.0075424691 -1.8791667
1521708000 -0.0081752306 -1.881089
1524904000 -0.0083440691 -1.8876803
1528100000 -0.0090026278 -1.8823543
1531296000 -0.0082335845 -1.8861549
1534492000 -0.0087694358 -1.8877335
1537688000 -0.008773067 -1.8936977
1540884000 -0.0086109564 -1.8973907
1544080000 -0.0083500342 -1.8926771
1547276000 -0.010819045 -1.8987864
1550472000 -0.0091504864 -1.8992363
1553668000 -0.0099243624 -1.9053874
1556864000 -0.0088145686 -1.9129913
1560060000 -0.0092576221 -1.9052249
1563256000 -0.0094412901 -1.9121253
1566452000 -0.0088514015 -1.9168425
1569648000 -0.0085671218 -1.9144143
1572844000 -0.0080196252 -1.9208808
1576040000 -0.0086008403 -1.9269763
1579236000 -0.0079335254 -1.9287795
1582432000 -0.0086586811 -1.9263958
1585628000 -0.0080022495 -1.9297724
1588824000 -0.0081103938 -1.9321628
1592020000 -0.007807232 -1.9409209
1595216000 -0.0086472686 -1.9449697
1598412000 -0.0079820212 -1.943668
1601608000 -0.0078266812 -1.9497981
1604804000 -0.0085562281 -1.9517201
1608000000 -0.0080847191 -1.9484777
1611196000 -0.0077761132 -1.9526049
1614392000 -0.0087473886 -1.9586878
1617588000 -0.0087842206 -1.957558
1620784000 -0.0083043873 -1.962822
1623980000 -0.0087201539 -1.9630306
1627176000 -0.0085344417 -1.9683336
1630372000 -0.0087645082 -1.9742221
1633568000 -0.0091860248 -1.9743392
1636764000 -0.0085417042 -1.9784307
1639960000 -0.0077361776 -1.9823617
1643156000 -0.008053598 -1.9843478
1646352000 -0.0067975363 -1.9849908
1649548000 -0.0077063558 -1.9935491
1652744000 -0.0074906074 -1.9954489
1655940000 -0.0074182614 -2.0001726
1659136000 -0.007638155 -2.0014451
1662332000 -0.0075300219 -2.0035343
1665528000 -0.0074836058 -2.003238
1668724000 -0.0076353028 -2.0072904
1671920000 -0.0074592312 -2.0160463
1675116000 -0.0073140231 -2.0159767
1678312000 -0.007839907 -2.018368
1681508000 -0.0079451958 -2.0255342
1684704000 -0.0071708942 -2.0248423
1687900000 -0.007663568 -2.0244153
1691096000 -0.0082105016 -2.0283189
1694292000 -0.0085813878 -2.0324028
1697488000 -0.0092111873 -2.0308058
1700684000 -0.0083513306 -2.0348203
1703880000 -0.0081757493 -2.0333507
1707076000 -0.0081005394 -2.033217
1710272000 -0.0081023546 -2.0368428
1713468000 -0.0081529263 -2.0444398
1716664000 -0.0082224319 -2.0444596
1719860000 -0.0086228875 -2.0433054
1723056000 -0.007733325 -2.041887
1726252000 -0.0068786871 -2.0494013
1729448000 -0.0073207649 -2.0535123
1732644000 -0.0072870562 -2.057235
1735840000 -0.0069764326 -2.0581105
1739036000 -0.0066562388 -2.0657768
1742232000 -0.0065162424 -2.0649369
1745428000 -0.0065592779 -2.0616939
1748624000 -0.0070052124 -2.0670736
