! 1-Port measurement of an SMA(m) short
! An interesting aspect of this file is that the impedance
!   rotates counter-clockwise with increasing frequency in
!   the Smith-chart, even though you would typically expect
!   it to rotate clock-wise. This is because the VNA cal
!   shifts the reference plane to the end of the connector
!   of the DUT, i.e. a bit away from the VNA's female
!   3.5 mm connector. However, this particular DUT shorts
!   the signal immediately at the end of the VNA's
!   connector, which means the cal data contains a short
!   transmission line that is not in the DUT, resulting in
!   a negative-length transmission line in the calibrated
!   data.
# Hz S  dB   R 50
10000000 -0.014404813 -179.92926
13196000 -0.018440653 -179.93633
16392000 -0.015761541 -179.94193
19588000 -0.011031845 -179.93991
22784000 -0.0093652792 -179.93089
25980000 -0.01053308 -179.94131
29176000 -0.012274595 -179.94731
32372000 -0.014004343 -179.95334
35568000 -0.01588157 -179.96049
38764000 -0.015527726 -179.95604
41960000 -0.015085331 -179.96616
45156000 -0.014237816 -179.96342
48352000 -0.014164059 -179.95828
51548000 -0.014925841 -179.96082
54744000 -0.012977108 -179.97797
57940000 -0.013752186 -179.98122
61136000 -0.013672984 -179.98543
64332000 -0.014879087 -179.9996
67528000 -0.013506794 179.99309
70724000 -0.013610662 179.99368
73920000 -0.013481088 -179.99561
77116000 -0.013946692 -179.98201
80312000 -0.013611701 -179.97937
83508000 -0.014503507 -179.98109
86704000 -0.014362997 -179.9906
89900000 -0.013452524 -179.99765
93096000 -0.013759976 -179.99347
96292000 -0.014171331 -179.9846
99488000 -0.014836488 -179.98032
102684000 -0.015244568 -179.97069
105880000 -0.015699189 -179.96175
109076000 -0.015528506 -179.95758
112272000 -0.015311589 -179.95462
115468000 -0.015413941 -179.94878
118664000 -0.015198329 -179.94592
121860000 -0.014911296 -179.94447
125056000 -0.014551557 -179.94241
128252000 -0.014572594 -179.94315
131448000 -0.014437538 -179.94275
134644000 -0.014282746 -179.94125
137840000 -0.014068488 -179.94038
141036000 -0.013311271 -179.93842
144232000 -0.013574568 -179.93901
147428000 -0.013212344 -179.94048
150624000 -0.012850149 -179.93918
153820000 -0.013466028 -179.93796
157016000 -0.012999697 -179.93178
160212000 -0.013367875 -179.93494
163408000 -0.013263495 -179.9299
166604000 -0.013200919 -179.92567
169800000 -0.013470182 -179.92384
172996000 -0.012768107 -179.92056
176192000 -0.012992427 -179.92017
179388000 -0.01358028 -179.91716
182584000 -0.013383714 -179.91032
185780000 -0.013117832 -179.90868
188976000 -0.012480197 -179.9032
192172000 -0.01314172 -179.90396
195368000 -0.013551458 -179.90057
198564000 -0.012936346 -179.90031
201760000 -0.013843594 -179.9003
204956000 -0.01337177 -179.90022
208152000 -0.012956597 -179.89238
211348000 -0.013160674 -179.89198
214544000 -0.013561065 -179.88902
217740000 -0.013443177 -179.88788
220936000 -0.012774079 -179.88687
224132000 -0.012615972 -179.88181
227328000 -0.012448005 -179.88293
230524000 -0.012180624 -179.87952
233720000 -0.012526406 -179.87154
236916000 -0.012174133 -179.87544
240112000 -0.012455274 -179.87289
243308000 -0.01208302 -179.86855
246504000 -0.012481755 -179.8689
249700000 -0.011782176 -179.86334
252896000 -0.0087798117 -179.86017
256092000 -0.0099944146 -179.85756
259288000 -0.0095790457 -179.84953
262484000 -0.010859528 -179.85356
265680000 -0.0090692928 -179.84981
268876000 -0.0091307713 -179.84871
272072000 -0.0094843544 -179.84344
275268000 -0.0097967135 -179.84393
278464000 -0.009775958 -179.83891
281660000 -0.0095541403 -179.84534
284856000 -0.010271003 -179.8497
288052000 -0.0099497885 -179.84476
291248000 -0.0096537629 -179.8419
294444000 -0.0096937157 -179.8383
297640000 -0.010148535 -179.83295
300836000 -0.010046826 -179.83327
304032000 -0.0097653214 -179.8336
307228000 -0.0085990252 -179.83878
310424000 -0.010721731 -179.83334
313620000 -0.0099004926 -179.83002
316816000 -0.0091657909 -179.83426
320012000 -0.0082831206 -179.82474
323208000 -0.0078181233 -179.8213
326404000 -0.008929478 -179.8194
329600000 -0.0082709305 -179.80896
332796000 -0.006809203 -179.80798
335992000 -0.0063194777 -179.81009
339188000 -0.0069403937 -179.81255
342384000 -0.0090176724 -179.80278
345580000 -0.0066943499 -179.80779
348776000 -0.0080836816 -179.80299
351972000 -0.0094545204 -179.80588
355168000 -0.0071773762 -179.80621
358364000 -0.0089964019 -179.80479
361560000 -0.0079586804 -179.80434
364756000 -0.0083899759 -179.80019
367952000 -0.0088335043 -179.79816
371148000 -0.0088363579 -179.80139
374344000 -0.0087629519 -179.79196
377540000 -0.010221964 -179.78517
380736000 -0.0093811043 -179.78899
383932000 -0.010533858 -179.79462
387128000 -0.010377389 -179.78603
390324000 -0.011013159 -179.7877
393520000 -0.011256852 -179.7802
396716000 -0.010225597 -179.77966
399912000 -0.010683585 -179.78249
403108000 -0.010357669 -179.7881
406304000 -0.0099440804 -179.77907
409500000 -0.0097295186 -179.77531
412696000 -0.010275674 -179.78265
415892000 -0.0092949774 -179.78477
419088000 -0.0095637394 -179.78018
422284000 -0.0083033498 -179.77005
425480000 -0.0081168776 -179.77153
428676000 -0.0088252034 -179.76418
431872000 -0.0091598248 -179.76181
435068000 -0.008823907 -179.76019
438264000 -0.0086376714 -179.76147
441460000 -0.0088114562 -179.75931
444656000 -0.007793488 -179.75424
447852000 -0.0086638685 -179.75792
451048000 -0.0076202624 -179.75371
454244000 -0.0081435898 -179.75139
457440000 -0.0088480301 -179.75262
460636000 -0.0087484261 -179.74449
463832000 -0.0089761689 -179.74338
467028000 -0.0088887541 -179.7476
470224000 -0.0096407905 -179.73387
473420000 -0.0096247056 -179.74214
476616000 -0.0094737178 -179.74329
479812000 -0.009459449 -179.73973
483008000 -0.0092641078 -179.73395
486204000 -0.01012674 -179.73372
489400000 -0.010316152 -179.73018
492596000 -0.010535674 -179.72978
495792000 -0.010617154 -179.72792
498988000 -0.010722251 -179.724
502184000 -0.011092313 -179.71832
505380000 -0.01097527 -179.72687
508576000 -0.010480144 -179.71791
511772000 -0.010557212 -179.72026
514968000 -0.010715763 -179.71754
518164000 -0.010279826 -179.7092
521360000 -0.011270348 -179.71939
524556000 -0.010875877 -179.70998
527752000 -0.011114891 -179.71133
530948000 -0.0098026814 -179.7088
534144000 -0.010700712 -179.7092
537340000 -0.010738339 -179.70044
540536000 -0.011356514 -179.7099
543732000 -0.011085565 -179.70158
546928000 -0.010888333 -179.6936
550124000 -0.010265036 -179.69446
553320000 -0.008967869 -179.69073
556516000 -0.0089364816 -179.70317
559712000 -0.010143085 -179.69875
562908000 -0.0092781158 -179.69438
566104000 -0.009287714 -179.69171
569300000 -0.0084524816 -179.69214
572496000 -0.0098737692 -179.68608
575692000 -0.0089084674 -179.6947
578888000 -0.0092934212 -179.69089
582084000 -0.0092703337 -179.67567
585280000 -0.0083648181 -179.67809
588476000 -0.0087105567 -179.67848
591672000 -0.0080727898 -179.67599
594868000 -0.0096112154 -179.6772
598064000 -0.0089875823 -179.67009
601260000 -0.00972874 -179.67235
604456000 -0.0094034141 -179.67191
607652000 -0.0088900505 -179.66873
610848000 -0.010317449 -179.66695
614044000 -0.010241943 -179.6635
617240000 -0.0098397816 -179.66826
620436000 -0.0099147623 -179.664
623632000 -0.010115582 -179.65912
626828000 -0.010627274 -179.66621
630024000 -0.0095710028 -179.66341
633220000 -0.01074327 -179.66118
636416000 -0.008959827 -179.65717
639612000 -0.0096420879 -179.64915
642808000 -0.0087634707 -179.65199
646004000 -0.0087263789 -179.6539
649200000 -0.0091004213 -179.64639
652396000 -0.0087831831 -179.64256
655592000 -0.01040671 -179.6443
658788000 -0.0098117618 -179.64661
661984000 -0.0091720168 -179.63873
665180000 -0.0087790331 -179.64627
668376000 -0.0091751302 -179.64641
671572000 -0.010113248 -179.64085
674768000 -0.010319785 -179.64005
677964000 -0.0095619233 -179.63887
681160000 -0.010158653 -179.64078
684356000 -0.0090734437 -179.6404
687552000 -0.0090659205 -179.64117
690748000 -0.0090827821 -179.64513
693944000 -0.0093050944 -179.63321
697140000 -0.0090192286 -179.63828
700336000 -0.0089141745 -179.63725
703532000 -0.0088799344 -179.63396
706728000 -0.0092392042 -179.63472
709924000 -0.0080901654 -179.63261
713120000 -0.0095367581 -179.6355
716316000 -0.0091860248 -179.63869
719512000 -0.0097427499 -179.63359
722708000 -0.010431102 -179.63399
725904000 -0.0097105792 -179.62448
729100000 -0.009795676 -179.62094
732296000 -0.0086869532 -179.61993
735492000 -0.0097541651 -179.62285
738688000 -0.0091629382 -179.6172
741884000 -0.0094986223 -179.61668
745080000 -0.0094137909 -179.61554
748276000 -0.0090104099 -179.61371
751472000 -0.0091395909 -179.60817
754668000 -0.0093868114 -179.60864
757864000 -0.0093857739 -179.6071
761060000 -0.0088153472 -179.60397
764256000 -0.0089196218 -179.60539
767452000 -0.0089606056 -179.61362
770648000 -0.0094425865 -179.60875
773844000 -0.0090578794 -179.61099
777040000 -0.009347639 -179.60751
780236000 -0.0096643995 -179.61409
783432000 -0.008872672 -179.61261
786628000 -0.010026068 -179.62015
789824000 -0.0094610061 -179.6105
793020000 -0.010403337 -179.61531
796216000 -0.010628572 -179.6095
799412000 -0.011145256 -179.60648
802608000 -0.010687997 -179.60577
805804000 -0.01036701 -179.60535
809000000 -0.010683845 -179.60725
812196000 -0.010933748 -179.60213
815392000 -0.010769999 -179.6031
818588000 -0.010615338 -179.60042
821784000 -0.010700712 -179.59773
824980000 -0.010491561 -179.59837
828176000 -0.011594256 -179.60201
831372000 -0.0094542606 -179.60191
834568000 -0.011116448 -179.60516
837764000 -0.010145421 -179.6012
840960000 -0.009677371 -179.59668
844156000 -0.010356111 -179.59354
847352000 -0.010336132 -179.59724
850548000 -0.010003756 -179.59903
853744000 -0.0099539403 -179.5936
856940000 -0.0084613003 -179.59602
860136000 -0.0095748948 -179.59641
863332000 -0.0094236489 -179.59363
866528000 -0.0091709793 -179.5921
869724000 -0.0092991283 -179.5929
872920000 -0.0091024963 -179.59462
876116000 -0.0094986223 -179.58568
879312000 -0.0093676141 -179.59573
882508000 -0.0099264383 -179.58516
885704000 -0.0095087402 -179.58794
888900000 -0.0098135779 -179.5836
892096000 -0.0095940931 -179.5843
895292000 -0.0087237852 -179.5838
898488000 -0.0089481547 -179.58067
901684000 -0.0091699418 -179.57683
904880000 -0.0082092052 -179.57703
908076000 -0.0083246175 -179.57727
911272000 -0.0079350816 -179.57458
914468000 -0.0090661803 -179.57384
917664000 -0.0086075841 -179.57674
920860000 -0.0089652743 -179.57358
924056000 -0.0085025392 -179.57271
927252000 -0.0089608645 -179.57565
930448000 -0.0083972374 -179.57828
933644000 -0.0097845197 -179.57487
936840000 -0.0088916067 -179.57692
940036000 -0.0093546435 -179.57317
943232000 -0.0098556085 -179.57312
946428000 -0.010137637 -179.5677
949624000 -0.0097577972 -179.56586
952820000 -0.010003496 -179.56418
956016000 -0.0091909533 -179.56082
959212000 -0.0099292919 -179.56189
962408000 -0.0092921238 -179.55637
965604000 -0.0094469972 -179.558
968800000 -0.0095035518 -179.55894
971996000 -0.0097012399 -179.55554
975192000 -0.0092519149 -179.55179
978388000 -0.0092420578 -179.54941
981584000 -0.0092887515 -179.55296
984780000 -0.0090296045 -179.55603
987976000 -0.009036609 -179.55234
991172000 -0.0085372943 -179.55
994368000 -0.0099298107 -179.55115
997564000 -0.008001212 -179.55107
1000760000 -0.0085842405 -179.55505
1003956000 -0.0089774663 -179.55199
1007152000 -0.0089248093 -179.54689
1010348000 -0.0083012749 -179.54793
1013544000 -0.0083910134 -179.54788
1016740000 -0.0087489448 -179.54678
1019936000 -0.0083554806 -179.54544
1023132000 -0.0084817903 -179.54013
1026328000 -0.0083635207 -179.54651
1029524000 -0.0074791978 -179.54823
1032720000 -0.0078580603 -179.54462
1035916000 -0.0073459167 -179.54257
1039112000 -0.0071571521 -179.54338
1042308000 -0.0068522417 -179.54016
1045504000 -0.0076866476 -179.53699
1048700000 -0.0076241521 -179.53667
1051896000 -0.0077584791 -179.53284
1055092000 -0.0079099266 -179.53729
1058288000 -0.0078723235 -179.53497
1061484000 -0.0074208542 -179.53558
1064680000 -0.0076671988 -179.53291
1067876000 -0.0073246541 -179.53635
1071072000 -0.0078702485 -179.53214
1074268000 -0.0078570228 -179.53188
1077464000 -0.0081575951 -179.53401
1080660000 -0.008377526 -179.53503
1083856000 -0.0082361773 -179.52628
1087052000 -0.0083456254 -179.53055
1090248000 -0.0081863822 -179.5278
1093444000 -0.0078871055 -179.52562
1096640000 -0.0078329053 -179.52838
1099836000 -0.0078178644 -179.5309
1103032000 -0.0080484115 -179.52727
1106228000 -0.0080424463 -179.52861
1109424000 -0.0078808814 -179.52269
1112620000 -0.0074457475 -179.52365
1115816000 -0.0065836478 -179.52455
1119012000 -0.007073144 -179.52603
1122208000 -0.0066912388 -179.5265
1125404000 -0.007360178 -179.52763
1128600000 -0.0069427271 -179.52751
1131796000 -0.0065286867 -179.53355
1134992000 -0.00728213 -179.52618
1138188000 -0.0069308006 -179.52887
1141384000 -0.0066694613 -179.52989
1144580000 -0.0071623377 -179.53365
1147776000 -0.0068289074 -179.53206
1150972000 -0.0072875749 -179.53195
1154168000 -0.0075315777 -179.53394
1157364000 -0.0078660995 -179.53421
1160560000 -0.007162597 -179.53471
1163756000 -0.0076124831 -179.53053
1166952000 -0.0076897591 -179.53262
1170148000 -0.0081741931 -179.52895
1173344000 -0.0071592261 -179.52895
1176540000 -0.0071200742 -179.52716
1179736000 -0.0072484217 -179.52585
1182932000 -0.0076314132 -179.52631
1186128000 -0.0081109125 -179.5228
1189324000 -0.0077403267 -179.52328
1192520000 -0.0074535264 -179.53107
1195716000 -0.0079926541 -179.53207
1198912000 -0.0072297528 -179.53032
1202108000 -0.0081793796 -179.52591
1205304000 -0.0079838363 -179.52866
1208500000 -0.0082102427 -179.52998
1211696000 -0.0083282478 -179.53273
1214892000 -0.0078487247 -179.53065
1218088000 -0.0082050553 -179.52867
1221284000 -0.0083886785 -179.52719
1224480000 -0.0082994597 -179.5271
1227676000 -0.0079037026 -179.52893
1230872000 -0.0090420563 -179.52528
1234068000 -0.0077672959 -179.52467
1237264000 -0.008038816 -179.52496
1240460000 -0.007372106 -179.524
1243656000 -0.0081124688 -179.52347
1246852000 -0.0075899228 -179.5209
1250048000 -0.0073785884 -179.52208
1253244000 -0.0073718466 -179.51881
1256440000 -0.008348478 -179.52423
1259636000 -0.007716469 -179.52545
1262832000 -0.0074185207 -179.52055
1266028000 -0.0077672959 -179.52339
1269224000 -0.0076752375 -179.51874
1272420000 -0.0073692533 -179.5172
1275616000 -0.0075411722 -179.5218
1278812000 -0.0072953538 -179.52394
1282008000 -0.007080663 -179.52138
1285204000 -0.007554397 -179.52065
1288400000 -0.0080548953 -179.51987
1291596000 -0.007368735 -179.52249
1294792000 -0.0078316089 -179.51952
1297988000 -0.007722693 -179.52135
1301184000 -0.0078648031 -179.52063
1304380000 -0.0080585256 -179.51617
1307576000 -0.007373143 -179.51784
1310772000 -0.0071107396 -179.51485
1313968000 -0.0070479936 -179.51483
1317164000 -0.0077162096 -179.51303
1320360000 -0.0065844255 -179.51067
1323556000 -0.0068836128 -179.51204
1326752000 -0.006608536 -179.51363
1329948000 -0.0068242406 -179.51291
1333144000 -0.0066668685 -179.50894
1336340000 -0.0060159219 -179.51042
1339536000 -0.0063884351 -179.51077
1342732000 -0.0063614743 -179.51323
1345928000 -0.0056343693 -179.51346
1349124000 -0.0053557428 -179.50912
1352320000 -0.0063601779 -179.51141
1355516000 -0.0059472295 -179.50786
1358712000 -0.0060563604 -179.51134
1361908000 -0.0064112484 -179.51437
1365104000 -0.0053907321 -179.51216
1368300000 -0.0062767039 -179.51154
1371496000 -0.0060055535 -179.50523
1374692000 -0.0065305014 -179.50681
1377888000 -0.006166012 -179.50478
1381084000 -0.0066365353 -179.50417
1384280000 -0.0064319875 -179.50771
1387476000 -0.0057834093 -179.50285
1390672000 -0.0063873981 -179.50615
1393868000 -0.0058663557 -179.50597
1397064000 -0.0058049234 -179.50468
1400260000 -0.0062777405 -179.50351
1403456000 -0.0066163135 -179.50574
1406652000 -0.0058005168 -179.50522
1409848000 -0.0059700408 -179.50668
1413044000 -0.0063549932 -179.50394
1416240000 -0.0056633991 -179.50874
1419436000 -0.0060428809 -179.50403
1422632000 -0.0059695221 -179.51385
1425828000 -0.0056667686 -179.50978
1429024000 -0.0059311586 -179.51547
1432220000 -0.0057704491 -179.51128
1435416000 -0.0065574632 -179.51483
1438612000 -0.0063114413 -179.51637
1441808000 -0.006304442 -179.51398
1445004000 -0.0063581038 -179.52032
1448200000 -0.0064802072 -179.52019
1451396000 -0.0067184609 -179.51849
1454592000 -0.006954913 -179.52124
1457788000 -0.0068574268 -179.52344
1460984000 -0.0071452246 -179.52324
1464180000 -0.0064967992 -179.52019
1467376000 -0.0067760171 -179.52786
1470572000 -0.0071268156 -179.52138
1473768000 -0.0072222333 -179.52774
1476964000 -0.0069367639 -179.52602
1480160000 -0.0082421424 -179.52356
1483356000 -0.0071815248 -179.52647
1486552000 -0.007930154 -179.52483
1489748000 -0.0082750805 -179.52454
1492944000 -0.0075440248 -179.52567
1496140000 -0.0076378956 -179.52359
1499336000 -0.0079184845 -179.52419
1502532000 -0.0088353194 -179.52299
1505728000 -0.0082820831 -179.52196
1508924000 -0.0081900135 -179.52174
1512120000 -0.0078466497 -179.51994
1515316000 -0.0085064294 -179.52138
1518512000 -0.0087528359 -179.52165
1521708000 -0.0078264223 -179.51909
1524904000 -0.0078956634 -179.51848
1528100000 -0.0084135775 -179.52113
1531296000 -0.0084517039 -179.51715
1534492000 -0.0079763159 -179.51868
1537688000 -0.0084970929 -179.51776
1540884000 -0.0081710806 -179.5206
1544080000 -0.0077538113 -179.52423
1547276000 -0.0079454547 -179.52206
1550472000 -0.0083933473 -179.5191
1553668000 -0.0082112802 -179.51808
1556864000 -0.0089515271 -179.52234
1560060000 -0.0089224745 -179.51738
1563256000 -0.0085686781 -179.52068
1566452000 -0.0095811207 -179.51849
1569648000 -0.0092809694 -179.52049
1572844000 -0.0091966605 -179.52107
1576040000 -0.0093761748 -179.51965
1579236000 -0.0090353116 -179.52049
1582432000 -0.0095551778 -179.52185
1585628000 -0.0096049886 -179.52438
1588824000 -0.0090661803 -179.51953
1592020000 -0.0094124936 -179.52122
1595216000 -0.009187581 -179.5163
1598412000 -0.0095053678 -179.51793
1601608000 -0.0094425865 -179.51833
1604804000 -0.0092773372 -179.52235
1608000000 -0.0088742282 -179.52182
1611196000 -0.0085614156 -179.52063
1614392000 -0.0084771216 -179.51756
1617588000 -0.0090200072 -179.52516
1620784000 -0.0087787742 -179.52496
1623980000 -0.0093427105 -179.52379
1627176000 -0.0093481578 -179.5237
1630372000 -0.0095196366 -179.51889
1633568000 -0.0089803198 -179.51909
1636764000 -0.0091613811 -179.52187
1639960000 -0.008931553 -179.51917
1643156000 -0.0093154712 -179.51718
1646352000 -0.01004449 -179.51764
1649548000 -0.01019472 -179.51534
1652744000 -0.0099580912 -179.51819
1655940000 -0.0099702859 -179.51274
1659136000 -0.0091647534 -179.51561
1662332000 -0.009823177 -179.51254
1665528000 -0.0096825603 -179.51393
1668724000 -0.010350662 -179.51387
1671920000 -0.010330683 -179.51282
1675116000 -0.0093699489 -179.50706
1678312000 -0.008679172 -179.51183
1681508000 -0.0093722837 -179.5101
1684704000 -0.0090213045 -179.51183
1687900000 -0.0087741045 -179.51433
1691096000 -0.0088576274 -179.51378
1694292000 -0.0090168947 -179.51161
1697488000 -0.0082862331 -179.51382
1700684000 -0.0086049903 -179.51524
1703880000 -0.0087294914 -179.51889
1707076000 -0.0080797914 -179.51814
1710272000 -0.008587094 -179.52264
1713468000 -0.0089953644 -179.51666
1716664000 -0.0092918649 -179.51917
1719860000 -0.010023993 -179.52077
1723056000 -0.0095084812 -179.52324
