! 2-Port measurement of a thru, SMA(f)-SMA(f)
# Hz S  dB   R 50
10000000 -65.753273 160.90866 0.0044387276 -0.27254272 0.0054678149 -0.26476657 -66.720558 -177.12846
16392000 -70.407936 120.87383 0.0032821356 -0.39772508 0.0025826516 -0.40087253 -73.921143 -135.05293
22784000 -67.801369 5.543118 -0.0083617056 -0.48427755 -0.0080038048 -0.48619276 -75.94767 -55.328262
29176000 -65.095367 33.104565 -0.0072790184 -0.66466582 -0.006946357 -0.66292793 -70.817757 41.854103
35568000 -67.751793 50.734383 -0.0055156592 -0.82297724 -0.0056164847 -0.8262797 -67.975365 68.406403
41960000 -66.351585 25.092621 -0.0060166996 -0.98201877 -0.0059487848 -0.98517102 -69.138184 35.925308
48352000 -64.15876 18.790119 -0.0068983915 -1.1645309 -0.0064161737 -1.1679853 -69.538338 42.711227
54744000 -65.266113 21.617588 -0.0064874659 -1.3321562 -0.0058920174 -1.3300276 -69.555862 40.36993
61136000 -64.522255 40.981129 -0.0060356227 -1.4799592 -0.0057860012 -1.4822208 -68.322281 40.60183
67528000 -63.854717 39.473789 -0.0050792075 -1.6337777 -0.0053054621 -1.6350014 -65.429382 69.508392
73920000 -62.820297 44.703461 -0.0050107888 -1.7906646 -0.0051274118 -1.7919552 -66.851639 49.247055
80312000 -62.118649 33.711746 -0.0057777069 -1.9520788 -0.0057769292 -1.9542139 -65.222275 43.306885
86704000 -60.866135 39.837875 -0.0062445588 -2.110131 -0.0062977015 -2.1099062 -65.066086 64.041382
93096000 -59.741207 43.736889 -0.0056032659 -2.275404 -0.0065579819 -2.2774987 -64.128746 58.082214
99488000 -59.52927 35.029972 -0.0053223087 -2.4524205 -0.0062575205 -2.4531038 -65.999847 47.408264
105880000 -59.179813 29.626301 -0.0049034986 -2.6219032 -0.0055713849 -2.6254969 -66.811302 37.533787
112272000 -58.524319 27.988432 -0.0052435198 -2.7897251 -0.0058186613 -2.790915 -67.005745 39.082317
118664000 -58.478729 29.012896 -0.0054451604 -2.946382 -0.0059544877 -2.9483907 -65.295708 35.73196
125056000 -57.913105 33.17149 -0.0054169092 -3.1012037 -0.0059251967 -3.1062622 -64.179451 49.650185
131448000 -57.410275 37.443611 -0.0055934163 -3.2515571 -0.0063513638 -3.2572231 -62.461182 55.436493
137840000 -57.192375 42.780941 -0.0064993915 -3.4017236 -0.0069442829 -3.4069088 -60.691448 62.930576
144232000 -56.581135 46.24408 -0.0073596593 -3.5533311 -0.0075961463 -3.5538199 -59.619564 65.829086
150624000 -56.16386 49.469021 -0.0078969598 -3.7027783 -0.0083487378 -3.7064321 -59.260094 67.793907
157016000 -56.138363 53.027592 -0.0084169488 -3.8561614 -0.0089255879 -3.8584123 -58.863667 67.399628
163408000 -56.00565 54.301243 -0.0086394874 -4.0102105 -0.0091346623 -4.0115566 -58.41539 70.343742
169800000 -56.055809 56.173275 -0.0085492255 -4.165688 -0.0092809694 -4.1655993 -58.177071 69.708023
176192000 -56.298012 57.478069 -0.0086355964 -4.3208475 -0.0091346623 -4.3255548 -58.003944 70.583382
182584000 -56.386566 58.53186 -0.0086127715 -4.4788208 -0.0095331268 -4.4808445 -57.176186 68.952316
188976000 -55.897404 58.501125 -0.0087624332 -4.6390767 -0.0093248105 -4.6410279 -57.344849 67.777611
195368000 -55.925682 58.431217 -0.0097692125 -4.7933621 -0.0091899158 -4.7979803 -56.876377 63.963928
201760000 -56.020214 56.814087 -0.0097427499 -4.9548144 -0.0095720412 -4.955204 -56.635464 59.71719
208152000 -55.785179 54.398285 -0.0094890241 -5.1089468 -0.0099082766 -5.1159801 -56.725956 57.820789
214544000 -55.446297 55.02166 -0.010075885 -5.2711864 -0.010883922 -5.2684622 -56.667187 54.227097
220936000 -55.588921 55.115501 -0.010030739 -5.4238615 -0.010226634 -5.427906 -56.596214 52.211205
227328000 -55.230453 53.097248 -0.010479884 -5.5799012 -0.010870167 -5.5837145 -56.478237 54.158298
233720000 -55.569454 53.599182 -0.010976827 -5.7374086 -0.010922588 -5.7370028 -55.453743 51.802166
240112000 -55.228672 53.766441 -0.011022502 -5.8906031 -0.011163682 -5.8946304 -55.413448 52.287891
246504000 -55.15593 50.742588 -0.011445017 -6.0437617 -0.011844212 -6.047545 -55.716293 49.321365
252896000 -55.356785 51.187992 -0.010494156 -6.2026596 -0.010484036 -6.1994915 -56.307934 54.814514
259288000 -55.989807 49.362629 -0.010645439 -6.3436017 -0.011070772 -6.3507934 -55.32198 48.468628
265680000 -55.337749 46.307381 -0.011024837 -6.5015059 -0.011687436 -6.4978285 -56.155628 47.830372
272072000 -55.693634 48.852604 -0.010800361 -6.6486077 -0.010963072 -6.653029 -56.316723 46.172276
278464000 -54.978699 43.560078 -0.010923627 -6.8033671 -0.011227266 -6.8092642 -56.360565 44.956882
284856000 -55.113941 40.667 -0.012202429 -6.9551463 -0.011566744 -6.9521627 -56.061485 46.094013
291248000 -54.286465 41.766941 -0.012347281 -7.1036663 -0.011885224 -7.1033926 -56.208447 45.000484
297640000 -53.92128 42.510471 -0.01177361 -7.2522478 -0.012320023 -7.2647738 -56.363274 43.253784
304032000 -53.665787 37.889061 -0.012349098 -7.4073582 -0.012957635 -7.4115701 -56.149418 45.620644
310424000 -54.141117 40.283955 -0.013060971 -7.5671616 -0.01249733 -7.5650187 -55.658974 45.869614
316816000 -53.711643 41.28484 -0.012810167 -7.7186928 -0.013120948 -7.7208366 -55.571644 43.845596
323208000 -53.486568 40.397457 -0.013009303 -7.8678827 -0.013101475 -7.8785987 -55.842293 45.488087
329600000 -53.564022 38.735718 -0.013883067 -8.0203133 -0.013067462 -8.0334377 -54.612629 44.908325
335992000 -53.107513 40.058426 -0.013780491 -8.1891279 -0.014318067 -8.1878691 -54.723782 43.312244
342384000 -52.872486 43.437088 -0.014257554 -8.3419199 -0.014872333 -8.3403177 -54.104675 46.610577
348776000 -52.548149 40.833305 -0.014682462 -8.4956751 -0.015768815 -8.4986467 -54.366753 43.030701
355168000 -52.30632 43.946049 -0.015141181 -8.6502218 -0.014858826 -8.6579094 -53.858101 44.415558
361560000 -52.072891 42.375732 -0.015274701 -8.8012962 -0.015462779 -8.8138199 -53.60218 46.073917
367952000 -52.5811 42.163403 -0.015291067 -8.9629726 -0.016201925 -8.9631767 -53.232529 39.017811
374344000 -52.291687 42.92992 -0.01606136 -9.1117229 -0.016381469 -9.1185637 -53.271881 39.067501
380736000 -52.373024 42.597679 -0.016114883 -9.267909 -0.015926776 -9.279582 -53.895977 36.779003
387128000 -52.976234 40.554218 -0.016629621 -9.4253559 -0.017003566 -9.4272938 -53.245468 33.465321
393520000 -52.881081 39.060501 -0.016009917 -9.5794573 -0.016603896 -9.5821438 -53.440403 33.769012
399912000 -52.741264 37.046497 -0.016171785 -9.7299175 -0.016432917 -9.7403955 -53.624187 32.922974
406304000 -53.05505 36.377369 -0.016898837 -9.8875856 -0.016189974 -9.8959522 -53.562191 31.450222
412696000 -53.074303 32.246262 -0.017254872 -10.03346 -0.017523348 -10.046712 -53.662746 28.002289
419088000 -53.19532 33.514805 -0.017455772 -10.187792 -0.017806655 -10.202245 -53.659054 27.369238
425480000 -53.418186 31.013601 -0.017325303 -10.347394 -0.018381903 -10.350824 -53.678024 21.81572
431872000 -53.661247 26.589485 -0.018601572 -10.50031 -0.018508244 -10.503047 -53.770123 19.042368
438264000 -53.727524 25.56851 -0.018366825 -10.655364 -0.01928691 -10.657525 -53.721581 16.488476
444656000 -53.714127 21.199768 -0.018658506 -10.802322 -0.019025605 -10.812467 -54.048698 16.075998
451048000 -53.752823 20.40193 -0.018551139 -10.961957 -0.01970581 -10.96626 -54.492088 18.138481
457440000 -53.503677 19.431086 -0.019134805 -11.111966 -0.020538786 -11.122287 -54.501316 16.261385
463832000 -53.284252 16.941744 -0.020102642 -11.269222 -0.019507926 -11.273272 -54.386665 13.146446
470224000 -53.231026 18.476704 -0.019571371 -11.422053 -0.019804625 -11.430043 -54.403637 13.241199
476616000 -52.803867 19.279528 -0.019666804 -11.578673 -0.019667584 -11.585649 -54.638847 12.727333
483008000 -52.972469 18.105824 -0.020239437 -11.736607 -0.020751543 -11.735985 -54.336521 13.427156
489400000 -52.650524 17.48447 -0.019409377 -11.886067 -0.020704206 -11.895332 -54.577354 10.813617
495792000 -52.847843 17.087786 -0.020026967 -12.038653 -0.021148993 -12.047288 -54.444912 10.957147
502184000 -53.291874 16.025368 -0.019150145 -12.194056 -0.020905785 -12.19904 -54.78553 6.8719296
508576000 -52.780983 17.558546 -0.019985357 -12.352695 -0.020722933 -12.353632 -53.757034 9.8458719
514968000 -52.665394 20.17314 -0.01984363 -12.502658 -0.020920612 -12.50988 -53.615616 10.583348
521360000 -52.929893 21.4179 -0.02028729 -12.658705 -0.020720851 -12.66732 -53.813179 9.0890093
527752000 -52.642624 20.358412 -0.0209435 -12.812831 -0.020960668 -12.821327 -53.454853 10.427651
534144000 -52.730984 20.833212 -0.019764578 -12.967574 -0.021753822 -12.978397 -53.246883 9.4204483
540536000 -53.160496 23.564526 -0.020097962 -13.127559 -0.021646637 -13.128379 -52.780315 9.3168192
546928000 -53.211071 23.644314 -0.020341646 -13.274855 -0.021497313 -13.281481 -52.700779 6.215991
553320000 -53.205143 21.929255 -0.021041304 -13.429245 -0.021625305 -13.435328 -52.562386 2.5348871
559712000 -53.555595 24.180754 -0.020773651 -13.586483 -0.021657305 -13.595808 -52.295376 5.7566257
566104000 -53.188061 23.895805 -0.020884976 -13.742414 -0.021504596 -13.749463 -51.801907 5.2692189
572496000 -53.489288 25.765701 -0.021134688 -13.895724 -0.02153009 -13.899192 -51.769413 5.7461114
578888000 -53.69706 24.306795 -0.020392621 -14.046664 -0.021510581 -14.057909 -51.490448 2.6056633
585280000 -54.288403 24.4065 -0.021840196 -14.205956 -0.021678377 -14.214776 -51.936298 3.2522285
591672000 -54.569405 20.216436 -0.021021536 -14.359486 -0.022070969 -14.364324 -51.539829 2.3229434
598064000 -54.575573 18.930195 -0.021640655 -14.510095 -0.022753991 -14.521184 -51.389622 0.53214216
604456000 -54.108959 22.811089 -0.021652622 -14.664801 -0.022393601 -14.66997 -51.473572 0.29269955
610848000 -54.450497 21.785873 -0.022023877 -14.817088 -0.022575743 -14.826096 -51.730247 -0.10965399
617240000 -54.214069 23.007511 -0.022355873 -14.979798 -0.023082661 -14.983881 -52.080193 -1.3590664
623632000 -54.257397 20.158112 -0.022490397 -15.136043 -0.023326511 -15.1374 -51.475723 0.33685067
630024000 -53.970928 18.47394 -0.022178944 -15.287898 -0.02314668 -15.29265 -51.714359 0.47800675
636416000 -53.593166 20.258869 -0.022772206 -15.441313 -0.023610977 -15.447028 -51.494972 3.1885374
642808000 -54.007824 18.671444 -0.022353532 -15.596807 -0.023181293 -15.596581 -51.784313 1.2285109
649200000 -53.87204 18.59222 -0.023433216 -15.749583 -0.023141215 -15.76057 -51.703655 1.8581252
655592000 -53.54081 20.717913 -0.023099575 -15.898795 -0.02327368 -15.914108 -51.426937 -1.1591702
661984000 -53.233952 19.808622 -0.022813581 -16.053751 -0.024894042 -16.064508 -50.98064 -0.19041917
668376000 -52.764919 20.240084 -0.024139881 -16.209597 -0.024561331 -16.221029 -51.102085 1.2141597
674768000 -52.675629 20.435196 -0.022891128 -16.364895 -0.024558987 -16.375444 -51.349373 3.7490244
681160000 -52.27203 21.169312 -0.024127387 -16.519426 -0.025247609 -16.527388 -51.462223 2.3366954
687552000 -52.481197 20.565197 -0.023994373 -16.673962 -0.025506685 -16.681881 -51.078964 1.6189085
693944000 -52.38377 21.467335 -0.024712585 -16.832577 -0.025455389 -16.837715 -50.799946 2.6805139
700336000 -52.25042 19.590666 -0.025363997 -16.983133 -0.025022136 -16.989553 -50.630772 3.1997383
706728000 -52.252872 19.349268 -0.025178611 -17.135599 -0.02573687 -17.147589 -50.335304 0.53941643
713120000 -52.083683 22.39797 -0.025521265 -17.29023 -0.025909256 -17.303955 -50.431583 1.1082222
719512000 -52.171387 20.468616 -0.02589155 -17.445385 -0.026123838 -17.456291 -50.312798 3.05866
725904000 -52.188568 19.216755 -0.026350152 -17.599646 -0.026542356 -17.608181 -49.893711 -0.039192881
732296000 -52.430592 14.713802 -0.025755879 -17.753952 -0.026309263 -17.760872 -50.149372 -0.48866493
738688000 -52.382446 16.747871 -0.025171842 -17.906425 -0.027014833 -17.91568 -49.999866 -1.8365474
745080000 -52.770771 15.674699 -0.025598861 -18.061531 -0.026691074 -18.066561 -49.544781 -2.2932136
751472000 -52.848888 13.953778 -0.025990505 -18.20908 -0.027040619 -18.220663 -49.764072 -3.6968651
757864000 -53.061489 12.817501 -0.025663178 -18.370565 -0.027537636 -18.378466 -50.074326 -5.8282533
764256000 -53.119087 10.616374 -0.02708412 -18.522026 -0.027014833 -18.535282 -49.852821 -6.5025163
770648000 -53.063076 9.9106913 -0.026792392 -18.678425 -0.02796619 -18.684641 -49.838966 -5.4753261
777040000 -53.004993 7.4677687 -0.027103394 -18.827171 -0.02715992 -18.841702 -49.876446 -8.9516602
783432000 -53.01799 7.3814259 -0.027704624 -18.98587 -0.027655909 -18.992491 -49.956928 -10.1109
789824000 -52.965443 6.0675273 -0.028051386 -19.14146 -0.027531646 -19.150137 -50.063789 -8.5342169
796216000 -52.790077 6.1663504 -0.027588697 -19.288824 -0.027800497 -19.297888 -49.765251 -12.071398
802608000 -52.761681 4.5133147 -0.027897412 -19.446693 -0.02828327 -19.454573 -49.879307 -12.017499
809000000 -52.681656 4.1354156 -0.027624387 -19.599796 -0.027564989 -19.604647 -49.927475 -13.823073
815392000 -52.536446 3.3870015 -0.02738915 -19.751097 -0.028215788 -19.759878 -49.880615 -12.811823
821784000 -52.172619 2.159085 -0.028373422 -19.905144 -0.027696028 -19.912868 -49.358883 -12.014668
828176000 -52.142612 4.3323612 -0.028405732 -20.056341 -0.028892741 -20.069454 -49.420734 -14.13223
834568000 -52.100182 5.3815131 -0.028057899 -20.209488 -0.028769486 -20.219496 -49.296341 -13.525173
840960000 -51.754704 4.0502238 -0.028627472 -20.364235 -0.028330952 -20.374126 -49.057945 -13.862246
847352000 -51.72628 4.569828 -0.027723903 -20.515839 -0.029411342 -20.527634 -48.836327 -12.839345
853744000 -51.854954 3.6523659 -0.028399477 -20.669315 -0.029030073 -20.682396 -48.765919 -12.792059
860136000 -52.030537 3.8919013 -0.02789663 -20.831194 -0.029613325 -20.838308 -48.808537 -12.521175
866528000 -52.260227 5.0762315 -0.028652227 -20.979511 -0.028571971 -20.990427 -48.566555 -11.735385
872920000 -52.48391 6.9454999 -0.028146483 -21.136648 -0.028793719 -21.145519 -48.628128 -11.928742
879312000 -52.396797 4.9762321 -0.029012352 -21.286934 -0.029355049 -21.302362 -48.500427 -15.325233
885704000 -52.709267 7.0219994 -0.029337848 -21.446213 -0.029422548 -21.455425 -48.376419 -12.599147
892096000 -52.954754 7.7615829 -0.028723884 -21.60965 -0.030222984 -21.60936 -48.41095 -12.983558
898488000 -52.92569 5.5267386 -0.029413166 -21.752445 -0.029451737 -21.768675 -48.125645 -14.298887
904880000 -53.300804 4.502192 -0.029301362 -21.908598 -0.029538264 -21.918348 -48.144543 -15.15066
911272000 -53.23772 3.0552051 -0.029541653 -22.064644 -0.030633554 -22.071592 -47.799397 -13.706916
917664000 -53.484978 3.0384135 -0.029698292 -22.218576 -0.030450292 -22.224367 -48.034931 -15.331347
924056000 -53.365089 0.55141729 -0.028982384 -22.369928 -0.030466193 -22.376703 -47.675751 -14.2383
930448000 -52.852062 2.6568136 -0.029722793 -22.519911 -0.030268861 -22.534391 -47.474838 -16.471113
936840000 -52.568756 0.32999215 -0.029640172 -22.673521 -0.030580895 -22.684904 -47.461151 -16.879505
943232000 -52.746235 -1.8756795 -0.029929744 -22.836006 -0.031163834 -22.839088 -47.454624 -17.389816
949624000 -52.358067 -3.5268278 -0.030748261 -22.978525 -0.031955466 -22.990704 -47.169861 -18.109491
956016000 -52.283241 -3.2593081 -0.030013151 -23.131542 -0.031903833 -23.1443 -47.000324 -18.942915
962408000 -52.494644 -5.9361415 -0.031141413 -23.292841 -0.031490013 -23.296799 -47.386768 -19.354645
968800000 -51.959244 -5.3810725 -0.030932058 -23.446386 -0.031192776 -23.455814 -47.129601 -20.191109
975192000 -52.042473 -4.9696808 -0.030653628 -23.598837 -0.032002926 -23.606945 -46.93745 -19.298431
981584000 -51.847805 -4.2919736 -0.031091355 -23.75061 -0.032071769 -23.764101 -46.773819 -19.448593
987976000 -51.452034 -4.225945 -0.031554937 -23.909883 -0.032532852 -23.918938 -46.982357 -19.45023
994368000 -51.606342 -5.6558886 -0.032054037 -24.06299 -0.031967722 -24.066055 -46.924473 -19.413225
1000760000 -51.474167 -5.3691335 -0.031621691 -24.214689 -0.03262309 -24.224762 -46.902916 -20.199484
1007152000 -51.546658 -6.4326615 -0.032110628 -24.366766 -0.032222241 -24.378555 -46.887985 -20.949728
1013544000 -51.324429 -6.6495709 -0.032435831 -24.52401 -0.033147354 -24.53462 -46.794746 -20.616859
1019936000 -51.637306 -7.4416175 -0.032296047 -24.675117 -0.032621004 -24.689447 -46.756897 -19.470217
1026328000 -51.442551 -5.7861724 -0.032359418 -24.828676 -0.032607183 -24.836697 -46.702911 -19.644711
1032720000 -51.337414 -5.0187206 -0.032388106 -24.987064 -0.033107184 -24.997988 -46.637989 -19.989157
1039112000 -51.353058 -6.9601727 -0.032581359 -25.136745 -0.033839684 -25.152306 -46.661919 -19.933002
1045504000 -51.336842 -6.3617229 -0.032562062 -25.29108 -0.034431934 -25.307064 -46.64991 -20.365198
1051896000 -51.545795 -7.0421944 -0.032921992 -25.446508 -0.033876732 -25.459198 -46.34008 -20.558229
1058288000 -51.377369 -8.5485439 -0.032218069 -25.596964 -0.033424377 -25.613026 -46.362995 -20.44141
1064680000 -51.429623 -7.9469509 -0.033004936 -25.756069 -0.033503417 -25.764517 -46.410446 -22.006081
1071072000 -51.641232 -9.797884 -0.033035975 -25.907272 -0.034329131 -25.919756 -46.403065 -23.600399
1077464000 -51.551064 -11.316694 -0.032980938 -26.063852 -0.033641677 -26.0718 -46.461296 -22.356688
1083856000 -51.453911 -9.603405 -0.033475507 -26.220865 -0.035336379 -26.228418 -46.254807 -23.756882
1090248000 -51.381832 -10.356398 -0.03362133 -26.367809 -0.035088982 -26.380819 -46.292076 -23.784889
1096640000 -51.768726 -11.26595 -0.033555593 -26.525394 -0.034277994 -26.533314 -46.078808 -25.215273
1103032000 -51.6866 -12.336715 -0.033257954 -26.675325 -0.035279226 -26.691565 -46.1889 -24.27059
1109424000 -51.698509 -13.012685 -0.034259729 -26.835697 -0.034054659 -26.841103 -46.168514 -25.925138
1115816000 -51.885384 -15.2127 -0.034338005 -26.988224 -0.035091851 -26.999426 -46.061493 -25.352402
1122208000 -51.789448 -16.242157 -0.033624463 -27.14426 -0.034984861 -27.152225 -46.02866 -26.614128
1128600000 -52.003124 -15.468463 -0.033509418 -27.291864 -0.035209544 -27.307129 -45.949203 -27.628668
1134992000 -52.095249 -18.249855 -0.033603329 -27.451004 -0.034586139 -27.460022 -46.04248 -26.80125
1141384000 -52.127266 -17.366236 -0.034625541 -27.596563 -0.034996863 -27.614479 -45.946964 -28.42816
1147776000 -52.0429 -17.255764 -0.034070313 -27.758181 -0.034741398 -27.764627 -45.974857 -28.204613
1154168000 -52.018547 -17.706806 -0.034142584 -27.90432 -0.03548044 -27.925272 -46.052891 -28.970554
1160560000 -51.785042 -17.950191 -0.033879079 -28.062374 -0.03459762 -28.074892 -45.740707 -28.481058
1166952000 -51.89621 -17.631416 -0.034168411 -28.218309 -0.035222072 -28.230476 -45.719444 -28.849277
1173344000 -51.792439 -17.709114 -0.034571789 -28.365816 -0.034818113 -28.382986 -45.654339 -27.994099
1179736000 -51.888634 -16.549679 -0.034570746 -28.521318 -0.034962155 -28.534075 -45.584389 -28.005131
1186128000 -51.913609 -16.898108 -0.034844991 -28.682892 -0.035493746 -28.695301 -45.583691 -28.091812
1192520000 -52.012791 -18.401663 -0.034387577 -28.836109 -0.035834346 -28.846113 -45.53709 -28.154501
1198912000 -52.039043 -16.9765 -0.034758095 -28.986555 -0.035627894 -29.001827 -45.445087 -27.415741
1205304000 -51.831722 -18.247438 -0.034257121 -29.145948 -0.036038455 -29.153051 -45.371063 -27.829817
1211696000 -51.993713 -16.347115 -0.034868214 -29.298323 -0.036101621 -29.311678 -45.408741 -28.176355
1218088000 -51.937225 -17.417753 -0.033850122 -29.45182 -0.035402145 -29.463322 -45.197876 -29.063023
1224480000 -52.181053 -17.694418 -0.03475653 -29.601131 -0.034830898 -29.61327 -45.425659 -28.556082
1230872000 -52.631413 -16.808779 -0.034165282 -29.7584 -0.035265654 -29.772522 -45.267113 -28.588058
1237264000 -52.362267 -18.205887 -0.034631282 -29.905281 -0.035080109 -29.925276 -45.27562 -29.000017
1243656000 -52.492664 -17.560297 -0.034657374 -30.064516 -0.036069255 -30.075878 -45.257107 -29.685707
1250048000 -52.851143 -17.231346 -0.034837946 -30.221422 -0.036413554 -30.236435 -45.365955 -29.53351
1256440000 -52.914631 -18.965446 -0.034839511 -30.374004 -0.03589803 -30.386925 -45.301666 -30.405287
